Debug: 4 4 command.c:153 script_debug(): command - adapter driver remote_bitbang
Debug: 5 4 command.c:153 script_debug(): command - remote_bitbang host localhost
Debug: 6 4 command.c:153 script_debug(): command - remote_bitbang port 9000
Debug: 7 4 command.c:153 script_debug(): command - transport select
Info : 8 4 transport.c:267 handle_transport_select(): auto-selecting first available session transport "jtag". To override use 'transport select <transport>'.
Debug: 9 4 command.c:153 script_debug(): command - transport select
Debug: 10 4 command.c:153 script_debug(): command - jtag newtap riscv cpu -irlen 5 -expected-id 0xdeadbeef
Debug: 11 4 tcl.c:404 handle_jtag_newtap_args(): Creating New Tap, Chip: riscv, Tap: cpu, Dotted: riscv.cpu, 4 params
Debug: 12 4 core.c:1481 jtag_tap_init(): Created Tap: riscv.cpu @ abs position 0, irlen 5, capture: 0x1 mask: 0x3
Debug: 13 4 command.c:153 script_debug(): command - target create riscv.cpu riscv -chain-position riscv.cpu
Debug: 14 4 target.c:2136 target_free_all_working_areas_restore(): freeing all working areas
Debug: 15 4 riscv.c:486 riscv_create_target(): [riscv.cpu] riscv_create_target()
Debug: 16 5 command.c:153 script_debug(): command - riscv.cpu configure -work-area-phys 0x10100000 -work-area-size 8096 -work-area-backup 1
Debug: 17 5 target.c:2136 target_free_all_working_areas_restore(): freeing all working areas
Debug: 18 5 target.c:2136 target_free_all_working_areas_restore(): freeing all working areas
Debug: 19 5 target.c:2136 target_free_all_working_areas_restore(): freeing all working areas
Debug: 20 5 command.c:153 script_debug(): command - echo DEPRECATED! use 'gdb report_data_abort', not 'gdb_report_data_abort'
User : 21 5 command.c:678 handle_echo(): DEPRECATED! use 'gdb report_data_abort', not 'gdb_report_data_abort'
Debug: 22 5 command.c:153 script_debug(): command - gdb report_data_abort enable
Debug: 23 5 command.c:153 script_debug(): command - echo DEPRECATED! use 'gdb report_register_access_error', not 'gdb_report_register_access_error'
User : 24 5 command.c:678 handle_echo(): DEPRECATED! use 'gdb report_register_access_error', not 'gdb_report_register_access_error'
Debug: 25 5 command.c:153 script_debug(): command - gdb report_register_access_error enable
Debug: 26 5 command.c:153 script_debug(): command - init
Debug: 27 5 command.c:153 script_debug(): command - target init
Debug: 28 5 command.c:153 script_debug(): command - target names
Debug: 29 5 command.c:153 script_debug(): command - riscv.cpu cget -event gdb-flash-erase-start
Debug: 30 5 command.c:153 script_debug(): command - riscv.cpu configure -event gdb-flash-erase-start reset init
Debug: 31 5 command.c:153 script_debug(): command - riscv.cpu cget -event gdb-flash-write-end
Debug: 32 5 command.c:153 script_debug(): command - riscv.cpu configure -event gdb-flash-write-end reset halt
Debug: 33 5 command.c:153 script_debug(): command - riscv.cpu cget -event gdb-attach
Debug: 34 5 command.c:153 script_debug(): command - riscv.cpu configure -event gdb-attach halt 1000
Debug: 35 5 target.c:1594 handle_target_init_command(): Initializing targets...
Debug: 36 5 riscv.c:655 riscv_init_target(): [riscv.cpu] riscv_init_target()
Debug: 37 5 semihosting_common.c:109 semihosting_common_init():  
Info : 38 5 remote_bitbang.c:378 remote_bitbang_init(): Initializing remote_bitbang driver
Info : 39 5 remote_bitbang.c:300 remote_bitbang_init_tcp(): Connecting to localhost:9000
Info : 40 6 remote_bitbang.c:389 remote_bitbang_init(): remote_bitbang driver initialized
Info : 41 6 adapter.c:157 adapter_init(): Note: The adapter "remote_bitbang" doesn't support configurable speed
Debug: 42 6 openocd.c:133 handle_init_command(): Debug Adapter init complete
Debug: 43 6 command.c:153 script_debug(): command - transport init
Debug: 44 6 transport.c:219 handle_transport_init(): handle_transport_init
Debug: 45 6 core.c:836 jtag_add_reset(): SRST line released
Debug: 46 6 core.c:861 jtag_add_reset(): TRST line released
Debug: 47 6 core.c:334 jtag_call_event_callbacks(): jtag event: TAP reset
Debug: 48 6 command.c:153 script_debug(): command - jtag arp_init
Debug: 49 6 core.c:1515 jtag_init_inner(): Init JTAG chain
Debug: 50 6 core.c:334 jtag_call_event_callbacks(): jtag event: TAP reset
Debug: 51 6 core.c:1241 jtag_examine_chain(): DR scan interrogation for IDCODE/BYPASS
Debug: 52 6 core.c:334 jtag_call_event_callbacks(): jtag event: TAP reset
Info : 53 7 core.c:1139 jtag_examine_chain_display(): JTAG tap: riscv.cpu tap/device found: 0xdeadbeef (mfg: 0x777 (Fabric of Truth Inc), part: 0xeadb, ver: 0xd)
Debug: 54 7 core.c:1371 jtag_validate_ircapture(): IR capture validation scan
Debug: 55 7 core.c:1428 jtag_validate_ircapture(): riscv.cpu: IR capture 0x01
Debug: 56 7 command.c:153 script_debug(): command - dap init
Debug: 57 7 arm_dap.c:96 dap_init_all(): Initializing all DAPs ...
Debug: 58 7 openocd.c:150 handle_init_command(): Examining targets...
Debug: 59 7 target.c:675 target_examine_one(): [riscv.cpu] Examination started
Debug: 60 7 target.c:1780 target_call_event_callbacks(): target event 19 (examine-start) for core riscv.cpu
Debug: 61 7 riscv.c:2462 riscv_examine(): [riscv.cpu] Starting examination
Debug: 62 7 riscv.c:440 dtmcontrol_scan(): [riscv.cpu] DTMCS: 0x0 -> 0x61
Debug: 63 8 riscv.c:2476 riscv_examine(): [riscv.cpu] dtmcontrol=0x61
Debug: 64 8 riscv.c:2478 riscv_examine(): [riscv.cpu] version=0x1
Debug: 65 8 riscv-013.c:2779 init_target(): [riscv.cpu] Init.
Debug: 66 8 riscv-013.c:1929 examine(): [riscv.cpu] dbgbase=0x0
Debug: 67 8 riscv.c:440 dtmcontrol_scan(): [riscv.cpu] DTMCS: 0x0 -> 0x61
Debug: 68 8 riscv-013.c:1937 examine(): [riscv.cpu] dtmcontrol=0x61
Debug: 69 8 riscv-013.c:1938 examine(): [riscv.cpu] dtmcs=0x61 {version=1_0 errinfo=not_implemented abits=6}
Warn : 70 8 riscv-013.c:1969 examine(): [riscv.cpu] The target's debug bus (DMI) address width is lower than the minimum:
Warn : 71 8 riscv-013.c:1971 examine(): [riscv.cpu]  found dtmcs.abits = 6; minimum is abits = 7.
Debug: 72 8 riscv-013.c:489 check_dbgbase_exists(): [riscv.cpu] Searching for DM with DMI base address (dbgbase) = 0x0
Debug: 73 8 riscv-013.c:242 get_dm(): [riscv.cpu] Coreid [0] Allocating new DM
Debug: 74 8 batch.c:291 riscv_batch_run_from(): [riscv.cpu] Running batch of scans [0, 2)
Debug: 75 8 batch.c:255 log_batch(): 40b r 00000000 @10 -> + 00000000 @00; 0i
Debug: 76 8 batch.c:255 log_batch(): 40b - 00000000 @00 -> b 00000000 @00; 0i
Debug: 77 8 riscv.c:443 dtmcontrol_scan(): [riscv.cpu] DTMCS: 0x10000 -> ?
Debug: 78 8 batch.h:86 riscv_scan_set_delay(): DM access delay is set to 1.
Debug: 79 8 batch.c:139 add_idle_before_batch(): [riscv.cpu] Adding 1 idle cycles before the batch.
Debug: 80 8 batch.c:291 riscv_batch_run_from(): [riscv.cpu] Running batch of scans [1, 2)
Debug: 81 8 batch.c:255 log_batch(): 40b - 00000000 @00 -> + 00000000 @10; 1i
Debug: 82 8 batch.c:199 log_dmi_decoded(): read: dmcontrol=0 {}
Debug: 83 8 riscv-013.c:1806 reset_dm(): [riscv.cpu] Activating the DM.
Debug: 84 8 batch.c:291 riscv_batch_run_from(): [riscv.cpu] Running batch of scans [0, 2)
Debug: 85 9 batch.c:255 log_batch(): 40b w 00000001 @10 -> + 00000000 @00; 1i
Debug: 86 9 batch.c:199 log_dmi_decoded(): write: dmcontrol=1 {dmactive=active}
Debug: 87 9 batch.c:255 log_batch(): 40b - 00000000 @00 -> + 00000001 @10; 1i
Debug: 88 9 riscv-013.c:1812 reset_dm(): [riscv.cpu] Waiting for the DM to come out of reset.
Debug: 89 9 batch.c:291 riscv_batch_run_from(): [riscv.cpu] Running batch of scans [0, 2)
Debug: 90 10 batch.c:255 log_batch(): 40b r 00000000 @10 -> + 00000000 @00; 1i
Debug: 91 10 batch.c:255 log_batch(): 40b - 00000000 @00 -> + 00000001 @10; 1i
Debug: 92 10 batch.c:199 log_dmi_decoded(): read: dmcontrol=1 {dmactive=active}
Debug: 93 10 riscv-013.c:1826 reset_dm(): [riscv.cpu] DM successfully reset.
Debug: 94 10 batch.c:291 riscv_batch_run_from(): [riscv.cpu] Running batch of scans [0, 2)
Debug: 95 10 batch.c:255 log_batch(): 40b w 07ffffc1 @10 -> + 00000000 @00; 1i
Debug: 96 10 batch.c:199 log_dmi_decoded(): write: dmcontrol=0x7ffffc1 {dmactive=active hartsello=0x3ff hasel=multiple hartselhi=0x3ff}
Debug: 97 10 batch.c:255 log_batch(): 40b - 00000000 @00 -> + 07ffffc1 @10; 1i
Debug: 98 10 batch.c:291 riscv_batch_run_from(): [riscv.cpu] Running batch of scans [0, 2)
Debug: 99 10 batch.c:255 log_batch(): 40b r 00000000 @10 -> + 00000000 @00; 1i
Debug: 100 10 batch.c:255 log_batch(): 40b - 00000000 @00 -> + 00000001 @10; 1i
Debug: 101 10 batch.c:199 log_dmi_decoded(): read: dmcontrol=1 {dmactive=active}
Debug: 102 10 batch.c:291 riscv_batch_run_from(): [riscv.cpu] Running batch of scans [0, 2)
Debug: 103 10 batch.c:255 log_batch(): 40b w 00000001 @10 -> + 00000000 @00; 1i
Debug: 104 10 batch.c:199 log_dmi_decoded(): write: dmcontrol=1 {dmactive=active}
Debug: 105 10 batch.c:255 log_batch(): 40b - 00000000 @00 -> + 00000001 @10; 1i
Debug: 106 10 batch.c:291 riscv_batch_run_from(): [riscv.cpu] Running batch of scans [0, 2)
Debug: 107 10 batch.c:255 log_batch(): 40b r 00000000 @11 -> + 00000000 @00; 1i
Debug: 108 10 batch.c:255 log_batch(): 40b - 00000000 @00 -> + 004c0c02 @11; 1i
Debug: 109 10 batch.c:199 log_dmi_decoded(): read: dmstatus=0x4c0c02 {version=0_13 anyrunning=1 allrunning=1 anyhavereset=1 allhavereset=1 impebreak=1}
Error: 110 10 riscv-013.c:524 dmstatus_read(): Debugger is not authenticated to target Debug Module. (dmstatus=0x4c0c02). Use `riscv authdata_read` and `riscv authdata_write` commands to authenticate.
Error: 111 10 target.c:681 target_examine_one(): [riscv.cpu] Examination failed
Debug: 112 10 target.c:682 target_examine_one(): [riscv.cpu] examine() returned error code -4
Debug: 113 10 target.c:1780 target_call_event_callbacks(): target event 20 (examine-fail) for core riscv.cpu
Warn : 114 10 target.c:739 target_examine(): target riscv.cpu examination failed
Debug: 115 11 openocd.c:152 handle_init_command(): target examination failed
Debug: 116 11 command.c:153 script_debug(): command - flash init
Debug: 117 11 tcl.c:1365 handle_flash_init_command(): Initializing flash devices...
Debug: 118 11 command.c:153 script_debug(): command - nand init
Debug: 119 11 tcl.c:484 handle_nand_init_command(): Initializing NAND devices...
Debug: 120 11 command.c:153 script_debug(): command - pld init
Debug: 121 11 pld.c:337 handle_pld_init_command(): Initializing PLDs...
Debug: 122 11 command.c:153 script_debug(): command - tpiu init
Info : 123 11 gdb_server.c:3927 gdb_target_start(): [riscv.cpu] starting gdb server on 3333
Info : 124 11 server.c:298 add_service(): Listening on port 3333 for gdb connections
Debug: 125 11 command.c:153 script_debug(): command - target names
Debug: 126 11 command.c:153 script_debug(): command - target names
Debug: 127 11 command.c:153 script_debug(): command - riscv.cpu cget -type
Debug: 128 11 command.c:153 script_debug(): command - riscv authdata_read
Debug: 129 11 batch.c:291 riscv_batch_run_from(): [riscv.cpu] Running batch of scans [0, 2)
Debug: 130 11 batch.c:255 log_batch(): 40b r 00000000 @11 -> + 00000000 @00; 1i
Debug: 131 11 batch.c:255 log_batch(): 40b - 00000000 @00 -> + 004c0c02 @11; 1i
Debug: 132 11 batch.c:199 log_dmi_decoded(): read: dmstatus=0x4c0c02 {version=0_13 anyrunning=1 allrunning=1 anyhavereset=1 allhavereset=1 impebreak=1}
Debug: 133 11 batch.c:291 riscv_batch_run_from(): [riscv.cpu] Running batch of scans [0, 2)
Debug: 134 11 batch.c:255 log_batch(): 40b r 00000000 @30 -> + 00000000 @00; 1i
Debug: 135 11 batch.c:255 log_batch(): 40b - 00000000 @00 -> + 327b23c6 @30; 1i
Debug: 136 11 batch.c:199 log_dmi_decoded(): read: 
Debug: 137 11 command.c:153 script_debug(): command - riscv authdata_write 846930887
Debug: 138 11 batch.c:291 riscv_batch_run_from(): [riscv.cpu] Running batch of scans [0, 2)
Debug: 139 12 batch.c:255 log_batch(): 40b r 00000000 @11 -> + 00000000 @00; 1i
Debug: 140 12 batch.c:255 log_batch(): 40b - 00000000 @00 -> + 004c0c02 @11; 1i
Debug: 141 12 batch.c:199 log_dmi_decoded(): read: dmstatus=0x4c0c02 {version=0_13 anyrunning=1 allrunning=1 anyhavereset=1 allhavereset=1 impebreak=1}
Debug: 142 12 batch.c:291 riscv_batch_run_from(): [riscv.cpu] Running batch of scans [0, 2)
Debug: 143 12 batch.c:255 log_batch(): 40b w 327b23c7 @30 -> + 00000000 @00; 1i
Debug: 144 12 batch.c:199 log_dmi_decoded(): write: 
Debug: 145 12 batch.c:255 log_batch(): 40b - 00000000 @00 -> + 327b23c7 @30; 1i
Debug: 146 12 batch.c:291 riscv_batch_run_from(): [riscv.cpu] Running batch of scans [0, 2)
Debug: 147 12 batch.c:255 log_batch(): 40b r 00000000 @11 -> + 00000000 @00; 1i
Debug: 148 12 batch.c:255 log_batch(): 40b - 00000000 @00 -> + 004c0c82 @11; 1i
Debug: 149 12 batch.c:199 log_dmi_decoded(): read: dmstatus=0x4c0c82 {version=0_13 anyrunning=1 allrunning=1 anyhavereset=1 allhavereset=1 impebreak=1 authenticated=true}
Info : 150 12 riscv-013.c:2126 riscv013_authdata_write(): [riscv.cpu] authdata_write resulted in successful authentication
Debug: 151 12 target.c:675 target_examine_one(): [riscv.cpu] Examination started
Debug: 152 12 target.c:1780 target_call_event_callbacks(): target event 19 (examine-start) for core riscv.cpu
Debug: 153 12 riscv.c:2462 riscv_examine(): [riscv.cpu] Starting examination
Debug: 154 12 riscv.c:440 dtmcontrol_scan(): [riscv.cpu] DTMCS: 0x0 -> 0x61
Debug: 155 12 riscv.c:2476 riscv_examine(): [riscv.cpu] dtmcontrol=0x61
Debug: 156 12 riscv.c:2478 riscv_examine(): [riscv.cpu] version=0x1
Debug: 157 12 riscv-013.c:2779 init_target(): [riscv.cpu] Init.
Debug: 158 12 riscv-013.c:1929 examine(): [riscv.cpu] dbgbase=0x0
Debug: 159 12 riscv.c:440 dtmcontrol_scan(): [riscv.cpu] DTMCS: 0x0 -> 0x61
Debug: 160 12 riscv-013.c:1937 examine(): [riscv.cpu] dtmcontrol=0x61
Debug: 161 12 riscv-013.c:1938 examine(): [riscv.cpu] dtmcs=0x61 {version=1_0 errinfo=not_implemented abits=6}
Warn : 162 12 riscv-013.c:1969 examine(): [riscv.cpu] The target's debug bus (DMI) address width is lower than the minimum:
Warn : 163 12 riscv-013.c:1971 examine(): [riscv.cpu]  found dtmcs.abits = 6; minimum is abits = 7.
Debug: 164 12 riscv-013.c:489 check_dbgbase_exists(): [riscv.cpu] Searching for DM with DMI base address (dbgbase) = 0x0
Debug: 165 12 batch.c:291 riscv_batch_run_from(): [riscv.cpu] Running batch of scans [0, 2)
Debug: 166 13 batch.c:255 log_batch(): 40b w 07ffffc1 @10 -> + 00000000 @00; 0i
Debug: 167 13 batch.c:199 log_dmi_decoded(): write: dmcontrol=0x7ffffc1 {dmactive=active hartsello=0x3ff hasel=multiple hartselhi=0x3ff}
Debug: 168 13 batch.c:255 log_batch(): 40b - 00000000 @00 -> b 00000000 @00; 0i
Debug: 169 13 riscv.c:443 dtmcontrol_scan(): [riscv.cpu] DTMCS: 0x10000 -> ?
Debug: 170 13 batch.h:86 riscv_scan_set_delay(): DM access delay is set to 1.
Debug: 171 13 batch.c:139 add_idle_before_batch(): [riscv.cpu] Adding 1 idle cycles before the batch.
Debug: 172 13 batch.c:291 riscv_batch_run_from(): [riscv.cpu] Running batch of scans [1, 2)
Debug: 173 13 batch.c:255 log_batch(): 40b - 00000000 @00 -> + 07ffffc1 @10; 1i
Debug: 174 13 batch.c:291 riscv_batch_run_from(): [riscv.cpu] Running batch of scans [0, 2)
Debug: 175 13 batch.c:255 log_batch(): 40b r 00000000 @10 -> + 00000000 @00; 1i
Debug: 176 13 batch.c:255 log_batch(): 40b - 00000000 @00 -> + 04000001 @10; 1i
Debug: 177 13 batch.c:199 log_dmi_decoded(): read: dmcontrol=0x4000001 {dmactive=active hasel=multiple}
Debug: 178 13 batch.c:291 riscv_batch_run_from(): [riscv.cpu] Running batch of scans [0, 2)
Debug: 179 13 batch.c:255 log_batch(): 40b r 00000000 @16 -> + 00000000 @00; 1i
Debug: 180 13 batch.c:255 log_batch(): 40b - 00000000 @00 -> + 02000002 @16; 1i
Debug: 181 13 batch.c:199 log_dmi_decoded(): read: abstractcs=0x2000002 {datacount=2 progbufsize=2}
Debug: 182 13 riscv-013.c:1754 wait_for_idle_if_needed(): [riscv.cpu] abstractcs=0x2000002 {datacount=2 relaxedpriv=full_checks busy=ready progbufsize=2 cmderr=none}
Debug: 183 13 batch.c:291 riscv_batch_run_from(): [riscv.cpu] Running batch of scans [0, 2)
Debug: 184 13 batch.c:255 log_batch(): 40b w 00000001 @10 -> + 00000000 @00; 1i
Debug: 185 13 batch.c:199 log_dmi_decoded(): write: dmcontrol=1 {dmactive=active}
Debug: 186 13 batch.c:255 log_batch(): 40b - 00000000 @00 -> + 00000001 @10; 1i
Debug: 187 13 batch.c:291 riscv_batch_run_from(): [riscv.cpu] Running batch of scans [0, 2)
Debug: 188 14 batch.c:255 log_batch(): 40b r 00000000 @11 -> + 00000000 @00; 1i
Debug: 189 14 batch.c:255 log_batch(): 40b - 00000000 @00 -> + 004c0c82 @11; 1i
Debug: 190 14 batch.c:199 log_dmi_decoded(): read: dmstatus=0x4c0c82 {version=0_13 anyrunning=1 allrunning=1 anyhavereset=1 allhavereset=1 impebreak=1 authenticated=true}
Debug: 191 14 batch.c:291 riscv_batch_run_from(): [riscv.cpu] Running batch of scans [0, 2)
Debug: 192 14 batch.c:255 log_batch(): 40b w 10000001 @10 -> + 00000000 @00; 1i
Debug: 193 14 batch.c:199 log_dmi_decoded(): write: dmcontrol=0x10000001 {dmactive=active ackhavereset=ack}
Debug: 194 14 batch.c:255 log_batch(): 40b - 00000000 @00 -> + 10000001 @10; 1i
Debug: 195 14 riscv-013.c:1909 examine_dm(): [riscv.cpu] Detected 1 harts.
Debug: 196 14 riscv-013.c:5380 riscv013_invalidate_cached_progbuf(): [riscv.cpu] Invalidating progbuf cache
Debug: 197 14 batch.c:291 riscv_batch_run_from(): [riscv.cpu] Running batch of scans [0, 2)
Debug: 198 14 batch.c:255 log_batch(): 40b r 00000000 @11 -> + 00000000 @00; 1i
Debug: 199 14 batch.c:255 log_batch(): 40b - 00000000 @00 -> + 00400c82 @11; 1i
Debug: 200 14 batch.c:199 log_dmi_decoded(): read: dmstatus=0x400c82 {version=0_13 anyrunning=1 allrunning=1 impebreak=1 authenticated=true}
Debug: 201 14 riscv-013.c:1995 examine(): [riscv.cpu] dmstatus:  0x00400c82
Debug: 202 14 batch.c:291 riscv_batch_run_from(): [riscv.cpu] Running batch of scans [0, 2)
Debug: 203 14 batch.c:255 log_batch(): 40b r 00000000 @12 -> + 00000000 @00; 1i
Debug: 204 14 batch.c:255 log_batch(): 40b - 00000000 @00 -> + 00112380 @12; 1i
Debug: 205 14 batch.c:199 log_dmi_decoded(): read: 
Debug: 206 14 batch.c:291 riscv_batch_run_from(): [riscv.cpu] Running batch of scans [0, 2)
Debug: 207 15 batch.c:255 log_batch(): 40b r 00000000 @38 -> + 00000000 @00; 1i
Debug: 208 15 batch.c:255 log_batch(): 40b - 00000000 @00 -> + 00000000 @38; 1i
Debug: 209 15 batch.c:199 log_dmi_decoded(): read: sbcs=0 {}
Debug: 210 15 batch.c:291 riscv_batch_run_from(): [riscv.cpu] Running batch of scans [0, 2)
Debug: 211 15 batch.c:255 log_batch(): 40b r 00000000 @16 -> + 00000000 @00; 1i
Debug: 212 15 batch.c:255 log_batch(): 40b - 00000000 @00 -> + 02000002 @16; 1i
Debug: 213 15 batch.c:199 log_dmi_decoded(): read: abstractcs=0x2000002 {datacount=2 progbufsize=2}
Info : 214 15 riscv-013.c:2027 examine(): [riscv.cpu] datacount=2 progbufsize=2
Debug: 215 15 batch.c:291 riscv_batch_run_from(): [riscv.cpu] Running batch of scans [0, 2)
Debug: 216 15 batch.c:255 log_batch(): 40b r 00000000 @11 -> + 00000000 @00; 1i
Debug: 217 15 batch.c:255 log_batch(): 40b - 00000000 @00 -> + 00400c82 @11; 1i
Debug: 218 15 batch.c:199 log_dmi_decoded(): read: dmstatus=0x400c82 {version=0_13 anyrunning=1 allrunning=1 impebreak=1 authenticated=true}
Debug: 219 15 riscv-013.c:5159 select_prepped_harts(): [riscv.cpu] index=0, prepped=1
Debug: 220 15 riscv-013.c:5213 riscv013_halt_go(): [riscv.cpu] halting hart
Debug: 221 15 batch.c:291 riscv_batch_run_from(): [riscv.cpu] Running batch of scans [0, 2)
Debug: 222 15 batch.c:255 log_batch(): 40b w 80000001 @10 -> + 00000000 @00; 1i
Debug: 223 15 batch.c:199 log_dmi_decoded(): write: dmcontrol=0x80000001 {dmactive=active haltreq=1}
Debug: 224 15 batch.c:255 log_batch(): 40b - 00000000 @00 -> + 80000001 @10; 1i
Debug: 225 15 batch.c:291 riscv_batch_run_from(): [riscv.cpu] Running batch of scans [0, 2)
Debug: 226 16 batch.c:255 log_batch(): 40b r 00000000 @11 -> + 00000000 @00; 1i
Debug: 227 16 batch.c:255 log_batch(): 40b - 00000000 @00 -> + 00400382 @11; 1i
Debug: 228 16 batch.c:199 log_dmi_decoded(): read: dmstatus=0x400382 {version=0_13 impebreak=1 authenticated=true anyhalted=1 allhalted=1}
Debug: 229 16 batch.c:291 riscv_batch_run_from(): [riscv.cpu] Running batch of scans [0, 2)
Debug: 230 16 batch.c:255 log_batch(): 40b w 00000001 @10 -> + 00000000 @00; 1i
Debug: 231 16 batch.c:199 log_dmi_decoded(): write: dmcontrol=1 {dmactive=active}
Debug: 232 16 batch.c:255 log_batch(): 40b - 00000000 @00 -> + 00000001 @10; 1i
Debug: 233 16 riscv_reg.c:708 riscv_reg_impl_init_cache(): [riscv.cpu] create register cache for 4194 registers
Debug: 234 16 riscv-013.c:664 riscv013_execute_abstract_command(): [riscv.cpu] access register=0x321008 {regno=0x1008 write=arg0 transfer=enabled postexec=disabled aarpostincrement=disabled aarsize=64bit}
Debug: 235 16 batch.c:291 riscv_batch_run_from(): [riscv.cpu] Running batch of scans [0, 3)
Debug: 236 16 batch.c:255 log_batch(): 40b w 00321008 @17 -> + 00000000 @00; 1i
Debug: 237 16 batch.c:199 log_dmi_decoded(): write: command=0x321008 {control=0x321008}
Debug: 238 16 batch.c:255 log_batch(): 40b r 00000000 @16 -> + 00321008 @17; 1i
Debug: 239 16 batch.c:255 log_batch(): 40b - 00000000 @00 -> + 02000302 @16; 1i
Debug: 240 16 batch.c:199 log_dmi_decoded(): read: abstractcs=0x2000302 {datacount=2 progbufsize=2 cmderr=exception}
Debug: 241 16 riscv-013.c:623 abstract_cmd_batch_check_and_clear_cmderr(): [riscv.cpu] abstractcs=0x2000302 {datacount=2 relaxedpriv=full_checks busy=ready progbufsize=2 cmderr=exception}
Debug: 242 16 riscv-013.c:645 abstract_cmd_batch_check_and_clear_cmderr(): [riscv.cpu] Abstract Command execution failed (abstractcs.cmderr = 3).
Debug: 243 16 batch.c:291 riscv_batch_run_from(): [riscv.cpu] Running batch of scans [0, 2)
Debug: 244 16 batch.c:255 log_batch(): 40b w 00000700 @16 -> + 00000000 @00; 1i
Debug: 245 16 batch.c:199 log_dmi_decoded(): write: abstractcs=0x700 {cmderr=other}
Debug: 246 16 batch.c:255 log_batch(): 40b - 00000000 @00 -> + 00000700 @16; 1i
Debug: 247 16 riscv_reg.c:990 riscv_reg_get(): [riscv.cpu] Reading misa from target
Debug: 248 16 riscv-013.c:5083 riscv013_get_register(): [riscv.cpu] reading register misa
Debug: 249 16 riscv-013.c:1567 register_read_direct(): [riscv.cpu] Reading misa
Debug: 250 16 riscv-013.c:664 riscv013_execute_abstract_command(): [riscv.cpu] access register=0x220301 {regno=0x301 write=arg0 transfer=enabled postexec=disabled aarpostincrement=disabled aarsize=32bit}
Debug: 251 16 batch.c:291 riscv_batch_run_from(): [riscv.cpu] Running batch of scans [0, 3)
Debug: 252 17 batch.c:255 log_batch(): 40b w 00220301 @17 -> + 00000000 @00; 1i
Debug: 253 17 batch.c:199 log_dmi_decoded(): write: command=0x220301 {control=0x220301}
Debug: 254 17 batch.c:255 log_batch(): 40b r 00000000 @16 -> + 00220301 @17; 1i
Debug: 255 17 batch.c:255 log_batch(): 40b - 00000000 @00 -> + 02000002 @16; 1i
Debug: 256 17 batch.c:199 log_dmi_decoded(): read: abstractcs=0x2000002 {datacount=2 progbufsize=2}
Debug: 257 17 riscv-013.c:623 abstract_cmd_batch_check_and_clear_cmderr(): [riscv.cpu] abstractcs=0x2000002 {datacount=2 relaxedpriv=full_checks busy=ready progbufsize=2 cmderr=none}
Debug: 258 17 batch.c:291 riscv_batch_run_from(): [riscv.cpu] Running batch of scans [0, 2)
Debug: 259 17 batch.c:255 log_batch(): 40b r 00000000 @04 -> + 00000000 @00; 1i
Debug: 260 17 batch.c:255 log_batch(): 40b - 00000000 @00 -> + 4034112d @04; 1i
Debug: 261 17 batch.c:199 log_dmi_decoded(): read: 
Debug: 262 17 riscv-013.c:1586 register_read_direct(): [riscv.cpu] misa = 0x4034112d
Debug: 263 17 riscv_reg.c:999 riscv_reg_get(): [riscv.cpu] Read misa: 0x4034112d
Debug: 264 17 riscv-013_reg.c:249 check_misa_mxl(): [riscv.cpu]  XLEN=32, misa=0x4034112d
Debug: 265 17 riscv_reg.c:990 riscv_reg_get(): [riscv.cpu] Reading vlenb from target
Debug: 266 17 riscv-013.c:5083 riscv013_get_register(): [riscv.cpu] reading register vlenb
Debug: 267 17 riscv-013.c:1567 register_read_direct(): [riscv.cpu] Reading vlenb
Debug: 268 17 riscv-013.c:1065 prep_for_register_access(): [riscv.cpu] Preparing mstatus to access vlenb
Debug: 269 17 riscv_reg.c:990 riscv_reg_get(): [riscv.cpu] Reading mstatus from target
Debug: 270 17 riscv-013.c:5083 riscv013_get_register(): [riscv.cpu] reading register mstatus
Debug: 271 17 riscv-013.c:1567 register_read_direct(): [riscv.cpu] Reading mstatus
Debug: 272 17 riscv-013.c:664 riscv013_execute_abstract_command(): [riscv.cpu] access register=0x220300 {regno=0x300 write=arg0 transfer=enabled postexec=disabled aarpostincrement=disabled aarsize=32bit}
Debug: 273 17 batch.c:291 riscv_batch_run_from(): [riscv.cpu] Running batch of scans [0, 3)
Debug: 274 17 batch.c:255 log_batch(): 40b w 00220300 @17 -> + 00000000 @00; 1i
Debug: 275 17 batch.c:199 log_dmi_decoded(): write: command=0x220300 {control=0x220300}
Debug: 276 17 batch.c:255 log_batch(): 40b r 00000000 @16 -> + 00220300 @17; 1i
Debug: 277 17 batch.c:255 log_batch(): 40b - 00000000 @00 -> + 02000002 @16; 1i
Debug: 278 17 batch.c:199 log_dmi_decoded(): read: abstractcs=0x2000002 {datacount=2 progbufsize=2}
Debug: 279 17 riscv-013.c:623 abstract_cmd_batch_check_and_clear_cmderr(): [riscv.cpu] abstractcs=0x2000002 {datacount=2 relaxedpriv=full_checks busy=ready progbufsize=2 cmderr=none}
Debug: 280 17 batch.c:291 riscv_batch_run_from(): [riscv.cpu] Running batch of scans [0, 2)
Debug: 281 17 batch.c:255 log_batch(): 40b r 00000000 @04 -> + 00000000 @00; 1i
Debug: 282 17 batch.c:255 log_batch(): 40b - 00000000 @00 -> + 00001800 @04; 1i
Debug: 283 17 batch.c:199 log_dmi_decoded(): read: 
Debug: 284 17 riscv-013.c:1586 register_read_direct(): [riscv.cpu] mstatus = 0x1800
Debug: 285 17 riscv_reg.c:999 riscv_reg_get(): [riscv.cpu] Read mstatus: 0x1800
Debug: 286 17 riscv_reg.c:867 riscv_set_or_write_register(): [riscv.cpu] Writing to target: mstatus <- 0x1a00 (cacheable=false, valid=false, dirty=false)
Debug: 287 17 riscv-013.c:5099 riscv013_set_register(): [riscv.cpu] writing 0x1a00 to register mstatus
Debug: 288 17 riscv-013.c:1538 register_write_direct(): [riscv.cpu] Writing 0x1a00 to mstatus
Debug: 289 17 riscv-013.c:901 register_write_abstract(): [riscv.cpu] access register=0x230300 {regno=0x300 write=register transfer=enabled postexec=disabled aarpostincrement=disabled aarsize=32bit}
Debug: 290 17 batch.c:291 riscv_batch_run_from(): [riscv.cpu] Running batch of scans [0, 4)
Debug: 291 17 batch.c:255 log_batch(): 40b w 00001a00 @04 -> + 00000000 @00; 1i
Debug: 292 17 batch.c:199 log_dmi_decoded(): write: 
Debug: 293 17 batch.c:255 log_batch(): 40b w 00230300 @17 -> + 00001a00 @04; 1i
Debug: 294 17 batch.c:199 log_dmi_decoded(): write: command=0x230300 {control=0x230300}
Debug: 295 17 batch.c:255 log_batch(): 40b r 00000000 @16 -> + 00230300 @17; 1i
Debug: 296 17 batch.c:255 log_batch(): 40b - 00000000 @00 -> + 02000002 @16; 1i
Debug: 297 17 batch.c:199 log_dmi_decoded(): read: abstractcs=0x2000002 {datacount=2 progbufsize=2}
Debug: 298 17 riscv-013.c:623 abstract_cmd_batch_check_and_clear_cmderr(): [riscv.cpu] abstractcs=0x2000002 {datacount=2 relaxedpriv=full_checks busy=ready progbufsize=2 cmderr=none}
Debug: 299 17 riscv-013.c:1557 register_write_direct(): [riscv.cpu] mstatus <- 0x1a00
Debug: 300 17 riscv_reg.c:883 riscv_set_or_write_register(): [riscv.cpu] Wrote 0x1a00 to mstatus (cacheable=false, valid=false, dirty=false)
Debug: 301 17 riscv-013.c:1085 prep_for_register_access(): [riscv.cpu] Prepared to access vlenb (mstatus=0x1a00)
Debug: 302 17 riscv-013.c:664 riscv013_execute_abstract_command(): [riscv.cpu] access register=0x220c22 {regno=0xc22 write=arg0 transfer=enabled postexec=disabled aarpostincrement=disabled aarsize=32bit}
Debug: 303 17 batch.c:291 riscv_batch_run_from(): [riscv.cpu] Running batch of scans [0, 3)
Debug: 304 18 batch.c:255 log_batch(): 40b w 00220c22 @17 -> + 00000000 @00; 1i
Debug: 305 18 batch.c:199 log_dmi_decoded(): write: command=0x220c22 {control=0x220c22}
Debug: 306 18 batch.c:255 log_batch(): 40b r 00000000 @16 -> + 00220c22 @17; 1i
Debug: 307 18 batch.c:255 log_batch(): 40b - 00000000 @00 -> + 02000002 @16; 1i
Debug: 308 18 batch.c:199 log_dmi_decoded(): read: abstractcs=0x2000002 {datacount=2 progbufsize=2}
Debug: 309 18 riscv-013.c:623 abstract_cmd_batch_check_and_clear_cmderr(): [riscv.cpu] abstractcs=0x2000002 {datacount=2 relaxedpriv=full_checks busy=ready progbufsize=2 cmderr=none}
Debug: 310 18 batch.c:291 riscv_batch_run_from(): [riscv.cpu] Running batch of scans [0, 2)
Debug: 311 18 batch.c:255 log_batch(): 40b r 00000000 @04 -> + 00000000 @00; 1i
Debug: 312 18 batch.c:255 log_batch(): 40b - 00000000 @00 -> + 00000010 @04; 1i
Debug: 313 18 batch.c:199 log_dmi_decoded(): read: 
Debug: 314 18 riscv-013.c:1097 cleanup_after_register_access(): [riscv.cpu] Restoring mstatus to 0x1800
Debug: 315 18 riscv_reg.c:867 riscv_set_or_write_register(): [riscv.cpu] Writing to target: mstatus <- 0x1800 (cacheable=false, valid=false, dirty=false)
Debug: 316 18 riscv-013.c:5099 riscv013_set_register(): [riscv.cpu] writing 0x1800 to register mstatus
Debug: 317 18 riscv-013.c:1538 register_write_direct(): [riscv.cpu] Writing 0x1800 to mstatus
Debug: 318 18 riscv-013.c:901 register_write_abstract(): [riscv.cpu] access register=0x230300 {regno=0x300 write=register transfer=enabled postexec=disabled aarpostincrement=disabled aarsize=32bit}
Debug: 319 18 batch.c:291 riscv_batch_run_from(): [riscv.cpu] Running batch of scans [0, 4)
Debug: 320 18 batch.c:255 log_batch(): 40b w 00001800 @04 -> + 00000000 @00; 1i
Debug: 321 18 batch.c:199 log_dmi_decoded(): write: 
Debug: 322 18 batch.c:255 log_batch(): 40b w 00230300 @17 -> + 00001800 @04; 1i
Debug: 323 18 batch.c:199 log_dmi_decoded(): write: command=0x230300 {control=0x230300}
Debug: 324 18 batch.c:255 log_batch(): 40b r 00000000 @16 -> + 00230300 @17; 1i
Debug: 325 18 batch.c:255 log_batch(): 40b - 00000000 @00 -> + 02000002 @16; 1i
Debug: 326 18 batch.c:199 log_dmi_decoded(): read: abstractcs=0x2000002 {datacount=2 progbufsize=2}
Debug: 327 18 riscv-013.c:623 abstract_cmd_batch_check_and_clear_cmderr(): [riscv.cpu] abstractcs=0x2000002 {datacount=2 relaxedpriv=full_checks busy=ready progbufsize=2 cmderr=none}
Debug: 328 18 riscv-013.c:1557 register_write_direct(): [riscv.cpu] mstatus <- 0x1800
Debug: 329 18 riscv_reg.c:883 riscv_set_or_write_register(): [riscv.cpu] Wrote 0x1800 to mstatus (cacheable=false, valid=false, dirty=false)
Debug: 330 18 riscv-013.c:1586 register_read_direct(): [riscv.cpu] vlenb = 0x10
Debug: 331 18 riscv_reg.c:999 riscv_reg_get(): [riscv.cpu] Read vlenb: 0x10
Info : 332 18 riscv-013_reg.c:161 examine_vlenb(): [riscv.cpu] Vector support with vlenb=16
Debug: 333 18 riscv_reg.c:990 riscv_reg_get(): [riscv.cpu] Reading mtopi from target
Debug: 334 18 riscv-013.c:5083 riscv013_get_register(): [riscv.cpu] reading register mtopi
Debug: 335 18 riscv-013.c:1567 register_read_direct(): [riscv.cpu] Reading mtopi
Debug: 336 18 riscv-013.c:664 riscv013_execute_abstract_command(): [riscv.cpu] access register=0x220fb0 {regno=0xfb0 write=arg0 transfer=enabled postexec=disabled aarpostincrement=disabled aarsize=32bit}
Debug: 337 18 batch.c:291 riscv_batch_run_from(): [riscv.cpu] Running batch of scans [0, 3)
Debug: 338 18 batch.c:255 log_batch(): 40b w 00220fb0 @17 -> + 00000000 @00; 1i
Debug: 339 18 batch.c:199 log_dmi_decoded(): write: command=0x220fb0 {control=0x220fb0}
Debug: 340 18 batch.c:255 log_batch(): 40b r 00000000 @16 -> + 00220fb0 @17; 1i
Debug: 341 18 batch.c:255 log_batch(): 40b - 00000000 @00 -> + 02000302 @16; 1i
Debug: 342 18 batch.c:199 log_dmi_decoded(): read: abstractcs=0x2000302 {datacount=2 progbufsize=2 cmderr=exception}
Debug: 343 18 riscv-013.c:623 abstract_cmd_batch_check_and_clear_cmderr(): [riscv.cpu] abstractcs=0x2000302 {datacount=2 relaxedpriv=full_checks busy=ready progbufsize=2 cmderr=exception}
Debug: 344 18 riscv-013.c:645 abstract_cmd_batch_check_and_clear_cmderr(): [riscv.cpu] Abstract Command execution failed (abstractcs.cmderr = 3).
Debug: 345 18 batch.c:291 riscv_batch_run_from(): [riscv.cpu] Running batch of scans [0, 2)
Debug: 346 18 batch.c:255 log_batch(): 40b w 00000700 @16 -> + 00000000 @00; 1i
Debug: 347 18 batch.c:199 log_dmi_decoded(): write: abstractcs=0x700 {cmderr=other}
Debug: 348 18 batch.c:255 log_batch(): 40b - 00000000 @00 -> + 00000700 @16; 1i
Debug: 349 18 riscv-013_reg.c:382 riscv013_reg_save(): [riscv.cpu] Saving fp
Debug: 350 18 riscv_reg.c:990 riscv_reg_get(): [riscv.cpu] Reading fp from target
Debug: 351 18 riscv-013.c:5083 riscv013_get_register(): [riscv.cpu] reading register fp
Debug: 352 18 riscv-013.c:1567 register_read_direct(): [riscv.cpu] Reading fp
Debug: 353 18 riscv-013.c:664 riscv013_execute_abstract_command(): [riscv.cpu] access register=0x221008 {regno=0x1008 write=arg0 transfer=enabled postexec=disabled aarpostincrement=disabled aarsize=32bit}
Debug: 354 18 batch.c:291 riscv_batch_run_from(): [riscv.cpu] Running batch of scans [0, 3)
Debug: 355 19 batch.c:255 log_batch(): 40b w 00221008 @17 -> + 00000000 @00; 1i
Debug: 356 19 batch.c:199 log_dmi_decoded(): write: command=0x221008 {control=0x221008}
Debug: 357 19 batch.c:255 log_batch(): 40b r 00000000 @16 -> + 00221008 @17; 1i
Debug: 358 19 batch.c:255 log_batch(): 40b - 00000000 @00 -> + 02000002 @16; 1i
Debug: 359 19 batch.c:199 log_dmi_decoded(): read: abstractcs=0x2000002 {datacount=2 progbufsize=2}
Debug: 360 19 riscv-013.c:623 abstract_cmd_batch_check_and_clear_cmderr(): [riscv.cpu] abstractcs=0x2000002 {datacount=2 relaxedpriv=full_checks busy=ready progbufsize=2 cmderr=none}
Debug: 361 19 batch.c:291 riscv_batch_run_from(): [riscv.cpu] Running batch of scans [0, 2)
Debug: 362 19 batch.c:255 log_batch(): 40b r 00000000 @04 -> + 00000000 @00; 1i
Debug: 363 19 batch.c:255 log_batch(): 40b - 00000000 @00 -> + 10110278 @04; 1i
Debug: 364 19 batch.c:199 log_dmi_decoded(): read: 
Debug: 365 19 riscv-013.c:1586 register_read_direct(): [riscv.cpu] fp = 0x10110278
Debug: 366 19 riscv_reg.c:999 riscv_reg_get(): [riscv.cpu] Read fp: 0x10110278
Debug: 367 19 program.c:33 riscv_program_write(): [riscv.cpu] progbuf[00] = DASM(0xfb002473)
Debug: 368 19 batch.c:291 riscv_batch_run_from(): [riscv.cpu] Running batch of scans [0, 2)
Debug: 369 19 batch.c:255 log_batch(): 40b w fb002473 @20 -> + 00000000 @00; 1i
Debug: 370 19 batch.c:199 log_dmi_decoded(): write: 
Debug: 371 19 batch.c:255 log_batch(): 40b - 00000000 @00 -> + fb002473 @20; 1i
Debug: 372 19 program.c:33 riscv_program_write(): [riscv.cpu] progbuf[01] = DASM(0x00100073)
Debug: 373 19 batch.c:291 riscv_batch_run_from(): [riscv.cpu] Running batch of scans [0, 2)
Debug: 374 19 batch.c:255 log_batch(): 40b w 00100073 @21 -> + 00000000 @00; 1i
Debug: 375 19 batch.c:199 log_dmi_decoded(): write: 
Debug: 376 19 batch.c:255 log_batch(): 40b - 00000000 @00 -> + 00100073 @21; 1i
Debug: 377 19 riscv-013.c:664 riscv013_execute_abstract_command(): [riscv.cpu] access register=0x241000 {regno=0x1000 write=arg0 transfer=disabled postexec=enabled aarpostincrement=disabled aarsize=32bit}
Debug: 378 19 batch.c:291 riscv_batch_run_from(): [riscv.cpu] Running batch of scans [0, 3)
Debug: 379 19 batch.c:255 log_batch(): 40b w 00241000 @17 -> + 00000000 @00; 1i
Debug: 380 19 batch.c:199 log_dmi_decoded(): write: command=0x241000 {control=0x241000}
Debug: 381 19 batch.c:255 log_batch(): 40b r 00000000 @16 -> + 00241000 @17; 1i
Debug: 382 19 batch.c:255 log_batch(): 40b - 00000000 @00 -> + 02000302 @16; 1i
Debug: 383 19 batch.c:199 log_dmi_decoded(): read: abstractcs=0x2000302 {datacount=2 progbufsize=2 cmderr=exception}
Debug: 384 19 riscv-013.c:623 abstract_cmd_batch_check_and_clear_cmderr(): [riscv.cpu] abstractcs=0x2000302 {datacount=2 relaxedpriv=full_checks busy=ready progbufsize=2 cmderr=exception}
Debug: 385 19 riscv-013.c:645 abstract_cmd_batch_check_and_clear_cmderr(): [riscv.cpu] Abstract Command execution failed (abstractcs.cmderr = 3).
Debug: 386 19 batch.c:291 riscv_batch_run_from(): [riscv.cpu] Running batch of scans [0, 2)
Debug: 387 19 batch.c:255 log_batch(): 40b w 00000700 @16 -> + 00000000 @00; 1i
Debug: 388 19 batch.c:199 log_dmi_decoded(): write: abstractcs=0x700 {cmderr=other}
Debug: 389 19 batch.c:255 log_batch(): 40b - 00000000 @00 -> + 00000700 @16; 1i
Debug: 390 19 program.c:65 riscv_program_exec(): [riscv.cpu] Unable to execute program 0x7ffe4e107060
Debug: 391 21 riscv-013.c:1617 set_dcsr_ebreak(): [riscv.cpu] Set dcsr.ebreak*
Debug: 392 21 riscv_reg.c:990 riscv_reg_get(): [riscv.cpu] Reading dcsr from target
Debug: 393 21 riscv-013.c:5083 riscv013_get_register(): [riscv.cpu] reading register dcsr
Debug: 394 21 riscv-013.c:1567 register_read_direct(): [riscv.cpu] Reading dcsr
Debug: 395 21 riscv-013.c:664 riscv013_execute_abstract_command(): [riscv.cpu] access register=0x2207b0 {regno=0x7b0 write=arg0 transfer=enabled postexec=disabled aarpostincrement=disabled aarsize=32bit}
Debug: 396 21 batch.c:291 riscv_batch_run_from(): [riscv.cpu] Running batch of scans [0, 3)
Debug: 397 21 batch.c:255 log_batch(): 40b w 002207b0 @17 -> + 00000000 @00; 1i
Debug: 398 21 batch.c:199 log_dmi_decoded(): write: command=0x2207b0 {control=0x2207b0}
Debug: 399 21 batch.c:255 log_batch(): 40b r 00000000 @16 -> + 002207b0 @17; 1i
Debug: 400 21 batch.c:255 log_batch(): 40b - 00000000 @00 -> + 02000002 @16; 1i
Debug: 401 21 batch.c:199 log_dmi_decoded(): read: abstractcs=0x2000002 {datacount=2 progbufsize=2}
Debug: 402 21 riscv-013.c:623 abstract_cmd_batch_check_and_clear_cmderr(): [riscv.cpu] abstractcs=0x2000002 {datacount=2 relaxedpriv=full_checks busy=ready progbufsize=2 cmderr=none}
Debug: 403 21 batch.c:291 riscv_batch_run_from(): [riscv.cpu] Running batch of scans [0, 2)
Debug: 404 21 batch.c:255 log_batch(): 40b r 00000000 @04 -> + 00000000 @00; 1i
Debug: 405 21 batch.c:255 log_batch(): 40b - 00000000 @00 -> + 400000c3 @04; 1i
Debug: 406 21 batch.c:199 log_dmi_decoded(): read: 
Debug: 407 21 riscv-013.c:1586 register_read_direct(): [riscv.cpu] dcsr = 0x400000c3
Debug: 408 21 riscv_reg.c:999 riscv_reg_get(): [riscv.cpu] Read dcsr: 0x400000c3
Debug: 409 21 riscv_reg.c:867 riscv_set_or_write_register(): [riscv.cpu] Writing to target: dcsr <- 0x4003b0c3 (cacheable=false, valid=true, dirty=false)
Debug: 410 21 riscv-013.c:5099 riscv013_set_register(): [riscv.cpu] writing 0x4003b0c3 to register dcsr
Debug: 411 21 riscv-013.c:1538 register_write_direct(): [riscv.cpu] Writing 0x4003b0c3 to dcsr
Debug: 412 21 riscv-013.c:901 register_write_abstract(): [riscv.cpu] access register=0x2307b0 {regno=0x7b0 write=register transfer=enabled postexec=disabled aarpostincrement=disabled aarsize=32bit}
Debug: 413 21 batch.c:291 riscv_batch_run_from(): [riscv.cpu] Running batch of scans [0, 4)
Debug: 414 21 batch.c:255 log_batch(): 40b w 4003b0c3 @04 -> + 00000000 @00; 1i
Debug: 415 21 batch.c:199 log_dmi_decoded(): write: 
Debug: 416 21 batch.c:255 log_batch(): 40b w 002307b0 @17 -> + 4003b0c3 @04; 1i
Debug: 417 21 batch.c:199 log_dmi_decoded(): write: command=0x2307b0 {control=0x2307b0}
Debug: 418 21 batch.c:255 log_batch(): 40b r 00000000 @16 -> + 002307b0 @17; 1i
Debug: 419 21 batch.c:255 log_batch(): 40b - 00000000 @00 -> + 02000002 @16; 1i
Debug: 420 21 batch.c:199 log_dmi_decoded(): read: abstractcs=0x2000002 {datacount=2 progbufsize=2}
Debug: 421 21 riscv-013.c:623 abstract_cmd_batch_check_and_clear_cmderr(): [riscv.cpu] abstractcs=0x2000002 {datacount=2 relaxedpriv=full_checks busy=ready progbufsize=2 cmderr=none}
Debug: 422 21 riscv-013.c:1557 register_write_direct(): [riscv.cpu] dcsr <- 0x4003b0c3
Debug: 423 21 riscv_reg.c:883 riscv_set_or_write_register(): [riscv.cpu] Wrote 0x4003b0c3 to dcsr (cacheable=false, valid=false, dirty=false)
Debug: 424 22 riscv-013.c:5449 riscv013_step_or_resume_current_hart(): [riscv.cpu] resuming (operation=resume)
Debug: 425 22 riscv_reg.c:792 riscv_reg_flush_all(): [riscv.cpu] Flushing register cache
Debug: 426 22 riscv_reg.c:803 riscv_reg_flush_all(): [riscv.cpu] fp is dirty; write back 0x10110278
Debug: 427 22 riscv_reg.c:867 riscv_set_or_write_register(): [riscv.cpu] Writing to target: fp <- 0x10110278 (cacheable=true, valid=true, dirty=true)
Debug: 428 22 riscv-013.c:5099 riscv013_set_register(): [riscv.cpu] writing 0x10110278 to register fp
Debug: 429 22 riscv-013.c:1538 register_write_direct(): [riscv.cpu] Writing 0x10110278 to fp
Debug: 430 22 riscv-013.c:901 register_write_abstract(): [riscv.cpu] access register=0x231008 {regno=0x1008 write=register transfer=enabled postexec=disabled aarpostincrement=disabled aarsize=32bit}
Debug: 431 22 batch.c:291 riscv_batch_run_from(): [riscv.cpu] Running batch of scans [0, 4)
Debug: 432 22 batch.c:255 log_batch(): 40b w 10110278 @04 -> + 00000000 @00; 1i
Debug: 433 22 batch.c:199 log_dmi_decoded(): write: 
Debug: 434 22 batch.c:255 log_batch(): 40b w 00231008 @17 -> + 10110278 @04; 1i
Debug: 435 22 batch.c:199 log_dmi_decoded(): write: command=0x231008 {control=0x231008}
Debug: 436 22 batch.c:255 log_batch(): 40b r 00000000 @16 -> + 00231008 @17; 1i
Debug: 437 22 batch.c:255 log_batch(): 40b - 00000000 @00 -> + 02000002 @16; 1i
Debug: 438 22 batch.c:199 log_dmi_decoded(): read: abstractcs=0x2000002 {datacount=2 progbufsize=2}
Debug: 439 22 riscv-013.c:623 abstract_cmd_batch_check_and_clear_cmderr(): [riscv.cpu] abstractcs=0x2000002 {datacount=2 relaxedpriv=full_checks busy=ready progbufsize=2 cmderr=none}
Debug: 440 22 riscv-013.c:1557 register_write_direct(): [riscv.cpu] fp <- 0x10110278
Debug: 441 22 riscv_reg.c:883 riscv_set_or_write_register(): [riscv.cpu] Wrote 0x10110278 to fp (cacheable=true, valid=true, dirty=false)
Debug: 442 22 riscv_reg.c:809 riscv_reg_flush_all(): [riscv.cpu] Flush of register cache completed
Debug: 443 22 riscv_reg.c:915 riscv_reg_cache_invalidate_all(): [riscv.cpu] Invalidating register cache.
Debug: 444 22 batch.c:291 riscv_batch_run_from(): [riscv.cpu] Running batch of scans [0, 2)
Debug: 445 22 batch.c:255 log_batch(): 40b w 40000001 @10 -> + 00000000 @00; 1i
Debug: 446 22 batch.c:199 log_dmi_decoded(): write: dmcontrol=0x40000001 {dmactive=active resumereq=1}
Debug: 447 22 batch.c:255 log_batch(): 40b - 00000000 @00 -> + 40000001 @10; 1i
Debug: 448 22 batch.c:291 riscv_batch_run_from(): [riscv.cpu] Running batch of scans [0, 2)
Debug: 449 22 batch.c:255 log_batch(): 40b r 00000000 @11 -> + 00000000 @00; 1i
Debug: 450 22 batch.c:255 log_batch(): 40b - 00000000 @00 -> + 00430c82 @11; 1i
Debug: 451 22 batch.c:199 log_dmi_decoded(): read: dmstatus=0x430c82 {version=0_13 anyrunning=1 allrunning=1 anyresumeack=1 allresumeack=1 impebreak=1 authenticated=true}
Debug: 452 22 batch.c:291 riscv_batch_run_from(): [riscv.cpu] Running batch of scans [0, 2)
Debug: 453 22 batch.c:255 log_batch(): 40b w 00000001 @10 -> + 00000000 @00; 1i
Debug: 454 22 batch.c:199 log_dmi_decoded(): write: dmcontrol=1 {dmactive=active}
Debug: 455 22 batch.c:255 log_batch(): 40b - 00000000 @00 -> + 00000001 @10; 1i
Info : 456 22 riscv-013.c:2090 examine(): [riscv.cpu] Examined RISC-V core
Info : 457 22 riscv-013.c:2091 examine(): [riscv.cpu]  XLEN=32, misa=0x4034112d
User : 458 22 target.c:688 target_examine_one(): [riscv.cpu] Target successfully examined.
Debug: 459 22 target.c:1780 target_call_event_callbacks(): target event 21 (examine-end) for core riscv.cpu
Info : 460 22 target.c:692 target_examine_one(): [riscv.cpu] Examination succeed


Debug: 461 22 command.c:153 script_debug(): command - halt
Debug: 462 22 target.c:3246 handle_halt_command(): -
Debug: 463 22 riscv.c:2707 riscv_halt(): [riscv.cpu] halting all harts
Debug: 464 22 riscv.c:2628 halt_prep(): [riscv.cpu] prep hart, debug_reason=5
Debug: 465 22 batch.c:291 riscv_batch_run_from(): [riscv.cpu] Running batch of scans [0, 2)
Debug: 466 22 batch.c:255 log_batch(): 40b r 00000000 @11 -> + 00000000 @00; 1i
Debug: 467 22 batch.c:255 log_batch(): 40b - 00000000 @00 -> + 00430c82 @11; 1i
Debug: 468 22 batch.c:199 log_dmi_decoded(): read: dmstatus=0x430c82 {version=0_13 anyrunning=1 allrunning=1 anyresumeack=1 allresumeack=1 impebreak=1 authenticated=true}
Debug: 469 22 riscv_reg.c:915 riscv_reg_cache_invalidate_all(): [riscv.cpu] Invalidating register cache.
Debug: 470 22 riscv-013.c:5159 select_prepped_harts(): [riscv.cpu] index=0, prepped=1
Debug: 471 22 riscv-013.c:5213 riscv013_halt_go(): [riscv.cpu] halting hart
Debug: 472 22 batch.c:291 riscv_batch_run_from(): [riscv.cpu] Running batch of scans [0, 2)
Debug: 473 23 batch.c:255 log_batch(): 40b w 80000001 @10 -> + 00000000 @00; 1i
Debug: 474 23 batch.c:199 log_dmi_decoded(): write: dmcontrol=0x80000001 {dmactive=active haltreq=1}
Debug: 475 23 batch.c:255 log_batch(): 40b - 00000000 @00 -> + 80000001 @10; 1i
Debug: 476 23 batch.c:291 riscv_batch_run_from(): [riscv.cpu] Running batch of scans [0, 2)
Debug: 477 23 batch.c:255 log_batch(): 40b r 00000000 @11 -> + 00000000 @00; 1i
Debug: 478 23 batch.c:255 log_batch(): 40b - 00000000 @00 -> + 00430382 @11; 1i
Debug: 479 23 batch.c:199 log_dmi_decoded(): read: dmstatus=0x430382 {version=0_13 anyresumeack=1 allresumeack=1 impebreak=1 authenticated=true anyhalted=1 allhalted=1}
Debug: 480 23 batch.c:291 riscv_batch_run_from(): [riscv.cpu] Running batch of scans [0, 2)
Debug: 481 23 batch.c:255 log_batch(): 40b w 00000001 @10 -> + 00000000 @00; 1i
Debug: 482 23 batch.c:199 log_dmi_decoded(): write: dmcontrol=1 {dmactive=active}
Debug: 483 23 batch.c:255 log_batch(): 40b - 00000000 @00 -> + 00000001 @10; 1i
Debug: 484 23 target.c:1780 target_call_event_callbacks(): target event 0 (gdb-halt) for core riscv.cpu
Debug: 485 23 target.c:1780 target_call_event_callbacks(): target event 1 (halted) for core riscv.cpu
User : 486 23 riscv.c:3574 riscv_arch_state(): riscv.cpu halted due to debug-request.


Debug: 487 23 riscv.c:4029 riscv_openocd_poll(): [riscv.cpu] Polling all harts.
Debug: 488 23 riscv.c:3852 riscv_poll_hart(): [riscv.cpu] polling, target->state=2
Debug: 489 23 batch.c:291 riscv_batch_run_from(): [riscv.cpu] Running batch of scans [0, 2)
Debug: 490 23 batch.c:255 log_batch(): 40b r 00000000 @11 -> + 00000000 @00; 1i
Debug: 491 23 batch.c:255 log_batch(): 40b - 00000000 @00 -> + 00430382 @11; 1i
Debug: 492 23 batch.c:199 log_dmi_decoded(): read: dmstatus=0x430382 {version=0_13 anyresumeack=1 allresumeack=1 impebreak=1 authenticated=true anyhalted=1 allhalted=1}
Debug: 493 23 riscv.c:4085 riscv_openocd_poll(): [riscv.cpu] should_remain_halted=0, should_resume=0


Info : 494 23 server.c:298 add_service(): Listening on port 6666 for tcl connections
Info : 495 23 server.c:298 add_service(): Listening on port 4444 for telnet connections
Debug: 496 23 command.c:153 script_debug(): command - init
Debug: 497 105 riscv.c:4029 riscv_openocd_poll(): [riscv.cpu] Polling all harts.
Debug: 498 105 riscv.c:3852 riscv_poll_hart(): [riscv.cpu] polling, target->state=2
Debug: 499 105 batch.c:291 riscv_batch_run_from(): [riscv.cpu] Running batch of scans [0, 2)
Debug: 500 106 batch.c:255 log_batch(): 40b r 00000000 @11 -> + 00000000 @00; 1i
Debug: 501 106 batch.c:255 log_batch(): 40b - 00000000 @00 -> + 00430382 @11; 1i
Debug: 502 106 batch.c:199 log_dmi_decoded(): read: dmstatus=0x430382 {version=0_13 anyresumeack=1 allresumeack=1 impebreak=1 authenticated=true anyhalted=1 allhalted=1}
Debug: 503 106 riscv.c:4085 riscv_openocd_poll(): [riscv.cpu] should_remain_halted=0, should_resume=0
Debug: 504 106 target.c:3001 handle_target(): [riscv.cpu] target_poll() -> 0, next attempt in 100ms
Debug: 505 205 riscv.c:4029 riscv_openocd_poll(): [riscv.cpu] Polling all harts.
Debug: 506 205 riscv.c:3852 riscv_poll_hart(): [riscv.cpu] polling, target->state=2
Debug: 507 205 batch.c:291 riscv_batch_run_from(): [riscv.cpu] Running batch of scans [0, 2)
Debug: 508 205 batch.c:255 log_batch(): 40b r 00000000 @11 -> + 00000000 @00; 1i
Debug: 509 205 batch.c:255 log_batch(): 40b - 00000000 @00 -> + 00430382 @11; 1i
Debug: 510 205 batch.c:199 log_dmi_decoded(): read: dmstatus=0x430382 {version=0_13 anyresumeack=1 allresumeack=1 impebreak=1 authenticated=true anyhalted=1 allhalted=1}
Debug: 511 205 riscv_reg.c:792 riscv_reg_flush_all(): [riscv.cpu] Flushing register cache
Debug: 512 205 riscv_reg.c:809 riscv_reg_flush_all(): [riscv.cpu] Flush of register cache completed
Debug: 513 205 riscv.c:4085 riscv_openocd_poll(): [riscv.cpu] should_remain_halted=0, should_resume=0
Debug: 514 205 target.c:3001 handle_target(): [riscv.cpu] target_poll() -> 0, next attempt in 100ms
Debug: 515 306 riscv.c:4029 riscv_openocd_poll(): [riscv.cpu] Polling all harts.
Debug: 516 306 riscv.c:3852 riscv_poll_hart(): [riscv.cpu] polling, target->state=2
Debug: 517 306 batch.c:291 riscv_batch_run_from(): [riscv.cpu] Running batch of scans [0, 2)
Debug: 518 306 batch.c:255 log_batch(): 40b r 00000000 @11 -> + 00000000 @00; 1i
Debug: 519 306 batch.c:255 log_batch(): 40b - 00000000 @00 -> + 00430382 @11; 1i
Debug: 520 306 batch.c:199 log_dmi_decoded(): read: dmstatus=0x430382 {version=0_13 anyresumeack=1 allresumeack=1 impebreak=1 authenticated=true anyhalted=1 allhalted=1}
Debug: 521 306 riscv_reg.c:792 riscv_reg_flush_all(): [riscv.cpu] Flushing register cache
Debug: 522 306 riscv_reg.c:809 riscv_reg_flush_all(): [riscv.cpu] Flush of register cache completed
Debug: 523 306 riscv.c:4085 riscv_openocd_poll(): [riscv.cpu] should_remain_halted=0, should_resume=0
Debug: 524 306 target.c:3001 handle_target(): [riscv.cpu] target_poll() -> 0, next attempt in 100ms
Debug: 525 406 riscv.c:4029 riscv_openocd_poll(): [riscv.cpu] Polling all harts.
Debug: 526 406 riscv.c:3852 riscv_poll_hart(): [riscv.cpu] polling, target->state=2
Debug: 527 406 batch.c:291 riscv_batch_run_from(): [riscv.cpu] Running batch of scans [0, 2)
Debug: 528 407 batch.c:255 log_batch(): 40b r 00000000 @11 -> + 00000000 @00; 1i
Debug: 529 407 batch.c:255 log_batch(): 40b - 00000000 @00 -> + 00430382 @11; 1i
Debug: 530 407 batch.c:199 log_dmi_decoded(): read: dmstatus=0x430382 {version=0_13 anyresumeack=1 allresumeack=1 impebreak=1 authenticated=true anyhalted=1 allhalted=1}
Debug: 531 407 riscv_reg.c:792 riscv_reg_flush_all(): [riscv.cpu] Flushing register cache
Debug: 532 407 riscv_reg.c:809 riscv_reg_flush_all(): [riscv.cpu] Flush of register cache completed
