Debug: 4 3 command.c:153 script_debug(): command - adapter driver remote_bitbang
Debug: 5 3 command.c:153 script_debug(): command - remote_bitbang host localhost
Debug: 6 3 command.c:153 script_debug(): command - remote_bitbang port 9000
Debug: 7 3 command.c:153 script_debug(): command - transport select
Info : 8 3 transport.c:267 handle_transport_select(): auto-selecting first available session transport "jtag". To override use 'transport select <transport>'.
Debug: 9 3 command.c:153 script_debug(): command - transport select
Debug: 10 3 command.c:153 script_debug(): command - jtag newtap riscv cpu -irlen 5 -expected-id 0x10e31913
Debug: 11 3 tcl.c:404 handle_jtag_newtap_args(): Creating New Tap, Chip: riscv, Tap: cpu, Dotted: riscv.cpu, 4 params
Debug: 12 3 core.c:1481 jtag_tap_init(): Created Tap: riscv.cpu @ abs position 0, irlen 5, capture: 0x1 mask: 0x3
Debug: 13 3 command.c:153 script_debug(): command - target create riscv.cpu riscv -chain-position riscv.cpu
Debug: 14 3 target.c:2136 target_free_all_working_areas_restore(): freeing all working areas
Debug: 15 3 riscv.c:486 riscv_create_target(): [riscv.cpu] riscv_create_target()
Debug: 16 3 command.c:153 script_debug(): command - riscv.cpu configure -work-area-phys 0x10100000 -work-area-size 8096 -work-area-backup 1
Debug: 17 3 target.c:2136 target_free_all_working_areas_restore(): freeing all working areas
Debug: 18 3 target.c:2136 target_free_all_working_areas_restore(): freeing all working areas
Debug: 19 3 target.c:2136 target_free_all_working_areas_restore(): freeing all working areas
Debug: 20 3 command.c:153 script_debug(): command - echo DEPRECATED! use 'gdb report_data_abort', not 'gdb_report_data_abort'
User : 21 3 command.c:678 handle_echo(): DEPRECATED! use 'gdb report_data_abort', not 'gdb_report_data_abort'
Debug: 22 3 command.c:153 script_debug(): command - gdb report_data_abort enable
Debug: 23 3 command.c:153 script_debug(): command - echo DEPRECATED! use 'gdb report_register_access_error', not 'gdb_report_register_access_error'
User : 24 3 command.c:678 handle_echo(): DEPRECATED! use 'gdb report_register_access_error', not 'gdb_report_register_access_error'
Debug: 25 3 command.c:153 script_debug(): command - gdb report_register_access_error enable
Debug: 26 3 command.c:153 script_debug(): command - init
Debug: 27 3 command.c:153 script_debug(): command - target init
Debug: 28 3 command.c:153 script_debug(): command - target names
Debug: 29 3 command.c:153 script_debug(): command - riscv.cpu cget -event gdb-flash-erase-start
Debug: 30 3 command.c:153 script_debug(): command - riscv.cpu configure -event gdb-flash-erase-start reset init
Debug: 31 3 command.c:153 script_debug(): command - riscv.cpu cget -event gdb-flash-write-end
Debug: 32 3 command.c:153 script_debug(): command - riscv.cpu configure -event gdb-flash-write-end reset halt
Debug: 33 3 command.c:153 script_debug(): command - riscv.cpu cget -event gdb-attach
Debug: 34 3 command.c:153 script_debug(): command - riscv.cpu configure -event gdb-attach halt 1000
Debug: 35 3 target.c:1594 handle_target_init_command(): Initializing targets...
Debug: 36 3 riscv.c:655 riscv_init_target(): [riscv.cpu] riscv_init_target()
Debug: 37 3 semihosting_common.c:109 semihosting_common_init():  
Info : 38 3 remote_bitbang.c:378 remote_bitbang_init(): Initializing remote_bitbang driver
Info : 39 3 remote_bitbang.c:300 remote_bitbang_init_tcp(): Connecting to localhost:9000
Info : 40 4 remote_bitbang.c:389 remote_bitbang_init(): remote_bitbang driver initialized
Info : 41 4 adapter.c:157 adapter_init(): Note: The adapter "remote_bitbang" doesn't support configurable speed
Debug: 42 4 openocd.c:133 handle_init_command(): Debug Adapter init complete
Debug: 43 4 command.c:153 script_debug(): command - transport init
Debug: 44 4 transport.c:219 handle_transport_init(): handle_transport_init
Debug: 45 4 core.c:836 jtag_add_reset(): SRST line released
Debug: 46 4 core.c:861 jtag_add_reset(): TRST line released
Debug: 47 4 core.c:334 jtag_call_event_callbacks(): jtag event: TAP reset
Debug: 48 4 command.c:153 script_debug(): command - jtag arp_init
Debug: 49 4 core.c:1515 jtag_init_inner(): Init JTAG chain
Debug: 50 4 core.c:334 jtag_call_event_callbacks(): jtag event: TAP reset
Debug: 51 4 core.c:1241 jtag_examine_chain(): DR scan interrogation for IDCODE/BYPASS
Debug: 52 4 core.c:334 jtag_call_event_callbacks(): jtag event: TAP reset
Info : 53 5 core.c:1139 jtag_examine_chain_display(): JTAG tap: riscv.cpu tap/device found: 0xdeadbeef (mfg: 0x777 (Fabric of Truth Inc), part: 0xeadb, ver: 0xd)
Warn : 54 5 core.c:1139 jtag_examine_chain_display(): JTAG tap: riscv.cpu       UNEXPECTED: 0xdeadbeef (mfg: 0x777 (Fabric of Truth Inc), part: 0xeadb, ver: 0xd)
Error: 55 5 core.c:1139 jtag_examine_chain_display(): JTAG tap: riscv.cpu  expected 1 of 1: 0x10e31913 (mfg: 0x489 (SiFive Inc), part: 0x0e31, ver: 0x1)
Error: 56 5 core.c:1560 jtag_init_inner(): Trying to use configured scan chain anyway...
Debug: 57 5 core.c:1371 jtag_validate_ircapture(): IR capture validation scan
Debug: 58 5 core.c:1428 jtag_validate_ircapture(): riscv.cpu: IR capture 0x01
Warn : 59 5 core.c:1583 jtag_init_inner(): Bypassing JTAG setup events due to errors
Debug: 60 5 command.c:153 script_debug(): command - dap init
Debug: 61 5 arm_dap.c:96 dap_init_all(): Initializing all DAPs ...
Debug: 62 5 openocd.c:150 handle_init_command(): Examining targets...
Debug: 63 5 target.c:675 target_examine_one(): [riscv.cpu] Examination started
Debug: 64 5 target.c:1780 target_call_event_callbacks(): target event 19 (examine-start) for core riscv.cpu
Debug: 65 5 riscv.c:2462 riscv_examine(): [riscv.cpu] Starting examination
Debug: 66 5 riscv.c:440 dtmcontrol_scan(): [riscv.cpu] DTMCS: 0x0 -> 0x61
Debug: 67 5 riscv.c:2476 riscv_examine(): [riscv.cpu] dtmcontrol=0x61
Debug: 68 5 riscv.c:2478 riscv_examine(): [riscv.cpu] version=0x1
Debug: 69 5 riscv-013.c:2779 init_target(): [riscv.cpu] Init.
Debug: 70 5 riscv-013.c:1929 examine(): [riscv.cpu] dbgbase=0x0
Debug: 71 5 riscv.c:440 dtmcontrol_scan(): [riscv.cpu] DTMCS: 0x0 -> 0x61
Debug: 72 5 riscv-013.c:1937 examine(): [riscv.cpu] dtmcontrol=0x61
Debug: 73 5 riscv-013.c:1938 examine(): [riscv.cpu] dtmcs=0x61 {version=1_0 errinfo=not_implemented abits=6}
Warn : 74 5 riscv-013.c:1969 examine(): [riscv.cpu] The target's debug bus (DMI) address width is lower than the minimum:
Warn : 75 5 riscv-013.c:1971 examine(): [riscv.cpu]  found dtmcs.abits = 6; minimum is abits = 7.
Debug: 76 5 riscv-013.c:489 check_dbgbase_exists(): [riscv.cpu] Searching for DM with DMI base address (dbgbase) = 0x0
Debug: 77 5 riscv-013.c:242 get_dm(): [riscv.cpu] Coreid [0] Allocating new DM
Debug: 78 5 batch.c:291 riscv_batch_run_from(): [riscv.cpu] Running batch of scans [0, 2)
Debug: 79 5 batch.c:255 log_batch(): 40b r 00000000 @10 -> + 00000000 @00; 0i
Debug: 80 5 batch.c:255 log_batch(): 40b - 00000000 @00 -> b 00000000 @00; 0i
Debug: 81 5 riscv.c:443 dtmcontrol_scan(): [riscv.cpu] DTMCS: 0x10000 -> ?
Debug: 82 5 batch.h:86 riscv_scan_set_delay(): DM access delay is set to 1.
Debug: 83 5 batch.c:139 add_idle_before_batch(): [riscv.cpu] Adding 1 idle cycles before the batch.
Debug: 84 5 batch.c:291 riscv_batch_run_from(): [riscv.cpu] Running batch of scans [1, 2)
Debug: 85 6 batch.c:255 log_batch(): 40b - 00000000 @00 -> + 00000000 @10; 1i
Debug: 86 6 batch.c:199 log_dmi_decoded(): read: dmcontrol=0 {}
Debug: 87 6 riscv-013.c:1806 reset_dm(): [riscv.cpu] Activating the DM.
Debug: 88 6 batch.c:291 riscv_batch_run_from(): [riscv.cpu] Running batch of scans [0, 2)
Debug: 89 6 batch.c:255 log_batch(): 40b w 00000001 @10 -> + 00000000 @00; 1i
Debug: 90 6 batch.c:199 log_dmi_decoded(): write: dmcontrol=1 {dmactive=active}
Debug: 91 6 batch.c:255 log_batch(): 40b - 00000000 @00 -> + 00000001 @10; 1i
Debug: 92 6 riscv-013.c:1812 reset_dm(): [riscv.cpu] Waiting for the DM to come out of reset.
Debug: 93 6 batch.c:291 riscv_batch_run_from(): [riscv.cpu] Running batch of scans [0, 2)
Debug: 94 6 batch.c:255 log_batch(): 40b r 00000000 @10 -> + 00000000 @00; 1i
Debug: 95 6 batch.c:255 log_batch(): 40b - 00000000 @00 -> + 00000001 @10; 1i
Debug: 96 6 batch.c:199 log_dmi_decoded(): read: dmcontrol=1 {dmactive=active}
Debug: 97 6 riscv-013.c:1826 reset_dm(): [riscv.cpu] DM successfully reset.
Debug: 98 6 batch.c:291 riscv_batch_run_from(): [riscv.cpu] Running batch of scans [0, 2)
Debug: 99 6 batch.c:255 log_batch(): 40b w 07ffffc1 @10 -> + 00000000 @00; 1i
Debug: 100 6 batch.c:199 log_dmi_decoded(): write: dmcontrol=0x7ffffc1 {dmactive=active hartsello=0x3ff hasel=multiple hartselhi=0x3ff}
Debug: 101 6 batch.c:255 log_batch(): 40b - 00000000 @00 -> + 07ffffc1 @10; 1i
Debug: 102 6 batch.c:291 riscv_batch_run_from(): [riscv.cpu] Running batch of scans [0, 2)
Debug: 103 6 batch.c:255 log_batch(): 40b r 00000000 @10 -> + 00000000 @00; 1i
Debug: 104 6 batch.c:255 log_batch(): 40b - 00000000 @00 -> + 00000001 @10; 1i
Debug: 105 6 batch.c:199 log_dmi_decoded(): read: dmcontrol=1 {dmactive=active}
Debug: 106 6 batch.c:291 riscv_batch_run_from(): [riscv.cpu] Running batch of scans [0, 2)
Debug: 107 7 batch.c:255 log_batch(): 40b w 00000001 @10 -> + 00000000 @00; 1i
Debug: 108 7 batch.c:199 log_dmi_decoded(): write: dmcontrol=1 {dmactive=active}
Debug: 109 7 batch.c:255 log_batch(): 40b - 00000000 @00 -> + 00000001 @10; 1i
Debug: 110 7 batch.c:291 riscv_batch_run_from(): [riscv.cpu] Running batch of scans [0, 2)
Debug: 111 7 batch.c:255 log_batch(): 40b r 00000000 @11 -> + 00000000 @00; 1i
Debug: 112 7 batch.c:255 log_batch(): 40b - 00000000 @00 -> + 004c0c02 @11; 1i
Debug: 113 7 batch.c:199 log_dmi_decoded(): read: dmstatus=0x4c0c02 {version=0_13 anyrunning=1 allrunning=1 anyhavereset=1 allhavereset=1 impebreak=1}
Error: 114 7 riscv-013.c:524 dmstatus_read(): Debugger is not authenticated to target Debug Module. (dmstatus=0x4c0c02). Use `riscv authdata_read` and `riscv authdata_write` commands to authenticate.
Error: 115 7 target.c:681 target_examine_one(): [riscv.cpu] Examination failed
Debug: 116 7 target.c:682 target_examine_one(): [riscv.cpu] examine() returned error code -4
Debug: 117 7 target.c:1780 target_call_event_callbacks(): target event 20 (examine-fail) for core riscv.cpu
Warn : 118 7 target.c:739 target_examine(): target riscv.cpu examination failed
Debug: 119 7 openocd.c:152 handle_init_command(): target examination failed
Debug: 120 7 command.c:153 script_debug(): command - flash init
Debug: 121 7 tcl.c:1365 handle_flash_init_command(): Initializing flash devices...
Debug: 122 7 command.c:153 script_debug(): command - nand init
Debug: 123 7 tcl.c:484 handle_nand_init_command(): Initializing NAND devices...
Debug: 124 7 command.c:153 script_debug(): command - pld init
Debug: 125 7 pld.c:337 handle_pld_init_command(): Initializing PLDs...
Debug: 126 7 command.c:153 script_debug(): command - tpiu init
Info : 127 7 gdb_server.c:3927 gdb_target_start(): [riscv.cpu] starting gdb server on 3333
Info : 128 7 server.c:298 add_service(): Listening on port 3333 for gdb connections
Debug: 129 7 command.c:153 script_debug(): command - target names
Debug: 130 7 command.c:153 script_debug(): command - target names
Debug: 131 7 command.c:153 script_debug(): command - riscv.cpu cget -type
Debug: 132 7 command.c:153 script_debug(): command - riscv authdata_read
Debug: 133 7 batch.c:291 riscv_batch_run_from(): [riscv.cpu] Running batch of scans [0, 2)
Debug: 134 7 batch.c:255 log_batch(): 40b r 00000000 @11 -> + 00000000 @00; 1i
Debug: 135 7 batch.c:255 log_batch(): 40b - 00000000 @00 -> + 004c0c02 @11; 1i
Debug: 136 7 batch.c:199 log_dmi_decoded(): read: dmstatus=0x4c0c02 {version=0_13 anyrunning=1 allrunning=1 anyhavereset=1 allhavereset=1 impebreak=1}
Debug: 137 8 batch.c:291 riscv_batch_run_from(): [riscv.cpu] Running batch of scans [0, 2)
Debug: 138 8 batch.c:255 log_batch(): 40b r 00000000 @30 -> + 00000000 @00; 1i
Debug: 139 8 batch.c:255 log_batch(): 40b - 00000000 @00 -> + 327b23c6 @30; 1i
Debug: 140 8 batch.c:199 log_dmi_decoded(): read: 
Debug: 141 8 command.c:153 script_debug(): command - riscv authdata_write 846930887
Debug: 142 8 batch.c:291 riscv_batch_run_from(): [riscv.cpu] Running batch of scans [0, 2)
Debug: 143 8 batch.c:255 log_batch(): 40b r 00000000 @11 -> + 00000000 @00; 1i
Debug: 144 8 batch.c:255 log_batch(): 40b - 00000000 @00 -> + 004c0c02 @11; 1i
Debug: 145 8 batch.c:199 log_dmi_decoded(): read: dmstatus=0x4c0c02 {version=0_13 anyrunning=1 allrunning=1 anyhavereset=1 allhavereset=1 impebreak=1}
Debug: 146 8 batch.c:291 riscv_batch_run_from(): [riscv.cpu] Running batch of scans [0, 2)
Debug: 147 8 batch.c:255 log_batch(): 40b w 327b23c7 @30 -> + 00000000 @00; 1i
Debug: 148 8 batch.c:199 log_dmi_decoded(): write: 
Debug: 149 8 batch.c:255 log_batch(): 40b - 00000000 @00 -> + 327b23c7 @30; 1i
Debug: 150 8 batch.c:291 riscv_batch_run_from(): [riscv.cpu] Running batch of scans [0, 2)
Debug: 151 8 batch.c:255 log_batch(): 40b r 00000000 @11 -> + 00000000 @00; 1i
Debug: 152 8 batch.c:255 log_batch(): 40b - 00000000 @00 -> + 004c0c82 @11; 1i
Debug: 153 8 batch.c:199 log_dmi_decoded(): read: dmstatus=0x4c0c82 {version=0_13 anyrunning=1 allrunning=1 anyhavereset=1 allhavereset=1 impebreak=1 authenticated=true}
Info : 154 8 riscv-013.c:2126 riscv013_authdata_write(): [riscv.cpu] authdata_write resulted in successful authentication
Debug: 155 8 target.c:675 target_examine_one(): [riscv.cpu] Examination started
Debug: 156 8 target.c:1780 target_call_event_callbacks(): target event 19 (examine-start) for core riscv.cpu
Debug: 157 8 riscv.c:2462 riscv_examine(): [riscv.cpu] Starting examination
Debug: 158 8 riscv.c:440 dtmcontrol_scan(): [riscv.cpu] DTMCS: 0x0 -> 0x61
Debug: 159 8 riscv.c:2476 riscv_examine(): [riscv.cpu] dtmcontrol=0x61
Debug: 160 9 riscv.c:2478 riscv_examine(): [riscv.cpu] version=0x1
Debug: 161 9 riscv-013.c:2779 init_target(): [riscv.cpu] Init.
Debug: 162 9 riscv-013.c:1929 examine(): [riscv.cpu] dbgbase=0x0
Debug: 163 9 riscv.c:440 dtmcontrol_scan(): [riscv.cpu] DTMCS: 0x0 -> 0x61
Debug: 164 9 riscv-013.c:1937 examine(): [riscv.cpu] dtmcontrol=0x61
Debug: 165 9 riscv-013.c:1938 examine(): [riscv.cpu] dtmcs=0x61 {version=1_0 errinfo=not_implemented abits=6}
Warn : 166 9 riscv-013.c:1969 examine(): [riscv.cpu] The target's debug bus (DMI) address width is lower than the minimum:
Warn : 167 9 riscv-013.c:1971 examine(): [riscv.cpu]  found dtmcs.abits = 6; minimum is abits = 7.
Debug: 168 9 riscv-013.c:489 check_dbgbase_exists(): [riscv.cpu] Searching for DM with DMI base address (dbgbase) = 0x0
Debug: 169 9 batch.c:291 riscv_batch_run_from(): [riscv.cpu] Running batch of scans [0, 2)
Debug: 170 9 batch.c:255 log_batch(): 40b w 07ffffc1 @10 -> + 00000000 @00; 0i
Debug: 171 9 batch.c:199 log_dmi_decoded(): write: dmcontrol=0x7ffffc1 {dmactive=active hartsello=0x3ff hasel=multiple hartselhi=0x3ff}
Debug: 172 9 batch.c:255 log_batch(): 40b - 00000000 @00 -> b 00000000 @00; 0i
Debug: 173 9 riscv.c:443 dtmcontrol_scan(): [riscv.cpu] DTMCS: 0x10000 -> ?
Debug: 174 9 batch.h:86 riscv_scan_set_delay(): DM access delay is set to 1.
Debug: 175 9 batch.c:139 add_idle_before_batch(): [riscv.cpu] Adding 1 idle cycles before the batch.
Debug: 176 9 batch.c:291 riscv_batch_run_from(): [riscv.cpu] Running batch of scans [1, 2)
Debug: 177 9 batch.c:255 log_batch(): 40b - 00000000 @00 -> + 07ffffc1 @10; 1i
Debug: 178 9 batch.c:291 riscv_batch_run_from(): [riscv.cpu] Running batch of scans [0, 2)
Debug: 179 9 batch.c:255 log_batch(): 40b r 00000000 @10 -> + 00000000 @00; 1i
Debug: 180 9 batch.c:255 log_batch(): 40b - 00000000 @00 -> + 04000001 @10; 1i
Debug: 181 9 batch.c:199 log_dmi_decoded(): read: dmcontrol=0x4000001 {dmactive=active hasel=multiple}
Debug: 182 9 batch.c:291 riscv_batch_run_from(): [riscv.cpu] Running batch of scans [0, 2)
Debug: 183 9 batch.c:255 log_batch(): 40b r 00000000 @16 -> + 00000000 @00; 1i
Debug: 184 9 batch.c:255 log_batch(): 40b - 00000000 @00 -> + 02000002 @16; 1i
Debug: 185 9 batch.c:199 log_dmi_decoded(): read: abstractcs=0x2000002 {datacount=2 progbufsize=2}
Debug: 186 9 riscv-013.c:1754 wait_for_idle_if_needed(): [riscv.cpu] abstractcs=0x2000002 {datacount=2 relaxedpriv=full_checks busy=ready progbufsize=2 cmderr=none}
Debug: 187 9 batch.c:291 riscv_batch_run_from(): [riscv.cpu] Running batch of scans [0, 2)
Debug: 188 10 batch.c:255 log_batch(): 40b w 00000001 @10 -> + 00000000 @00; 1i
Debug: 189 10 batch.c:199 log_dmi_decoded(): write: dmcontrol=1 {dmactive=active}
Debug: 190 10 batch.c:255 log_batch(): 40b - 00000000 @00 -> + 00000001 @10; 1i
Debug: 191 10 batch.c:291 riscv_batch_run_from(): [riscv.cpu] Running batch of scans [0, 2)
Debug: 192 10 batch.c:255 log_batch(): 40b r 00000000 @11 -> + 00000000 @00; 1i
Debug: 193 10 batch.c:255 log_batch(): 40b - 00000000 @00 -> + 004c0c82 @11; 1i
Debug: 194 10 batch.c:199 log_dmi_decoded(): read: dmstatus=0x4c0c82 {version=0_13 anyrunning=1 allrunning=1 anyhavereset=1 allhavereset=1 impebreak=1 authenticated=true}
Debug: 195 10 batch.c:291 riscv_batch_run_from(): [riscv.cpu] Running batch of scans [0, 2)
Debug: 196 10 batch.c:255 log_batch(): 40b w 10000001 @10 -> + 00000000 @00; 1i
Debug: 197 10 batch.c:199 log_dmi_decoded(): write: dmcontrol=0x10000001 {dmactive=active ackhavereset=ack}
Debug: 198 10 batch.c:255 log_batch(): 40b - 00000000 @00 -> + 10000001 @10; 1i
Debug: 199 10 riscv-013.c:1909 examine_dm(): [riscv.cpu] Detected 1 harts.
Debug: 200 10 riscv-013.c:5380 riscv013_invalidate_cached_progbuf(): [riscv.cpu] Invalidating progbuf cache
Debug: 201 10 batch.c:291 riscv_batch_run_from(): [riscv.cpu] Running batch of scans [0, 2)
Debug: 202 10 batch.c:255 log_batch(): 40b r 00000000 @11 -> + 00000000 @00; 1i
Debug: 203 10 batch.c:255 log_batch(): 40b - 00000000 @00 -> + 00400c82 @11; 1i
Debug: 204 10 batch.c:199 log_dmi_decoded(): read: dmstatus=0x400c82 {version=0_13 anyrunning=1 allrunning=1 impebreak=1 authenticated=true}
Debug: 205 10 riscv-013.c:1995 examine(): [riscv.cpu] dmstatus:  0x00400c82
Debug: 206 10 batch.c:291 riscv_batch_run_from(): [riscv.cpu] Running batch of scans [0, 2)
Debug: 207 10 batch.c:255 log_batch(): 40b r 00000000 @12 -> + 00000000 @00; 1i
Debug: 208 10 batch.c:255 log_batch(): 40b - 00000000 @00 -> + 00112380 @12; 1i
Debug: 209 10 batch.c:199 log_dmi_decoded(): read: 
Debug: 210 11 batch.c:291 riscv_batch_run_from(): [riscv.cpu] Running batch of scans [0, 2)
Debug: 211 11 batch.c:255 log_batch(): 40b r 00000000 @38 -> + 00000000 @00; 1i
Debug: 212 11 batch.c:255 log_batch(): 40b - 00000000 @00 -> + 00000000 @38; 1i
Debug: 213 11 batch.c:199 log_dmi_decoded(): read: sbcs=0 {}
Debug: 214 11 batch.c:291 riscv_batch_run_from(): [riscv.cpu] Running batch of scans [0, 2)
Debug: 215 11 batch.c:255 log_batch(): 40b r 00000000 @16 -> + 00000000 @00; 1i
Debug: 216 11 batch.c:255 log_batch(): 40b - 00000000 @00 -> + 02000002 @16; 1i
Debug: 217 11 batch.c:199 log_dmi_decoded(): read: abstractcs=0x2000002 {datacount=2 progbufsize=2}
Info : 218 11 riscv-013.c:2027 examine(): [riscv.cpu] datacount=2 progbufsize=2
Debug: 219 11 batch.c:291 riscv_batch_run_from(): [riscv.cpu] Running batch of scans [0, 2)
Debug: 220 11 batch.c:255 log_batch(): 40b r 00000000 @11 -> + 00000000 @00; 1i
Debug: 221 11 batch.c:255 log_batch(): 40b - 00000000 @00 -> + 00400c82 @11; 1i
Debug: 222 11 batch.c:199 log_dmi_decoded(): read: dmstatus=0x400c82 {version=0_13 anyrunning=1 allrunning=1 impebreak=1 authenticated=true}
Debug: 223 11 riscv-013.c:5159 select_prepped_harts(): [riscv.cpu] index=0, prepped=1
Debug: 224 11 riscv-013.c:5213 riscv013_halt_go(): [riscv.cpu] halting hart
Debug: 225 11 batch.c:291 riscv_batch_run_from(): [riscv.cpu] Running batch of scans [0, 2)
Debug: 226 11 batch.c:255 log_batch(): 40b w 80000001 @10 -> + 00000000 @00; 1i
Debug: 227 11 batch.c:199 log_dmi_decoded(): write: dmcontrol=0x80000001 {dmactive=active haltreq=1}
Debug: 228 11 batch.c:255 log_batch(): 40b - 00000000 @00 -> + 80000001 @10; 1i
Debug: 229 11 batch.c:291 riscv_batch_run_from(): [riscv.cpu] Running batch of scans [0, 2)
Debug: 230 12 batch.c:255 log_batch(): 40b r 00000000 @11 -> + 00000000 @00; 1i
Debug: 231 12 batch.c:255 log_batch(): 40b - 00000000 @00 -> + 00400382 @11; 1i
Debug: 232 12 batch.c:199 log_dmi_decoded(): read: dmstatus=0x400382 {version=0_13 impebreak=1 authenticated=true anyhalted=1 allhalted=1}
Debug: 233 12 batch.c:291 riscv_batch_run_from(): [riscv.cpu] Running batch of scans [0, 2)
Debug: 234 12 batch.c:255 log_batch(): 40b w 00000001 @10 -> + 00000000 @00; 1i
Debug: 235 12 batch.c:199 log_dmi_decoded(): write: dmcontrol=1 {dmactive=active}
Debug: 236 12 batch.c:255 log_batch(): 40b - 00000000 @00 -> + 00000001 @10; 1i
Debug: 237 12 riscv_reg.c:708 riscv_reg_impl_init_cache(): [riscv.cpu] create register cache for 4194 registers
Debug: 238 12 riscv-013.c:664 riscv013_execute_abstract_command(): [riscv.cpu] access register=0x321008 {regno=0x1008 write=arg0 transfer=enabled postexec=disabled aarpostincrement=disabled aarsize=64bit}
Debug: 239 12 batch.c:291 riscv_batch_run_from(): [riscv.cpu] Running batch of scans [0, 3)
Debug: 240 13 batch.c:255 log_batch(): 40b w 00321008 @17 -> + 00000000 @00; 1i
Debug: 241 13 batch.c:199 log_dmi_decoded(): write: command=0x321008 {control=0x321008}
Debug: 242 13 batch.c:255 log_batch(): 40b r 00000000 @16 -> + 00321008 @17; 1i
Debug: 243 13 batch.c:255 log_batch(): 40b - 00000000 @00 -> + 02000302 @16; 1i
Debug: 244 13 batch.c:199 log_dmi_decoded(): read: abstractcs=0x2000302 {datacount=2 progbufsize=2 cmderr=exception}
Debug: 245 13 riscv-013.c:623 abstract_cmd_batch_check_and_clear_cmderr(): [riscv.cpu] abstractcs=0x2000302 {datacount=2 relaxedpriv=full_checks busy=ready progbufsize=2 cmderr=exception}
Debug: 246 13 riscv-013.c:645 abstract_cmd_batch_check_and_clear_cmderr(): [riscv.cpu] Abstract Command execution failed (abstractcs.cmderr = 3).
Debug: 247 13 batch.c:291 riscv_batch_run_from(): [riscv.cpu] Running batch of scans [0, 2)
Debug: 248 13 batch.c:255 log_batch(): 40b w 00000700 @16 -> + 00000000 @00; 1i
Debug: 249 13 batch.c:199 log_dmi_decoded(): write: abstractcs=0x700 {cmderr=other}
Debug: 250 13 batch.c:255 log_batch(): 40b - 00000000 @00 -> + 00000700 @16; 1i
Debug: 251 13 riscv_reg.c:990 riscv_reg_get(): [riscv.cpu] Reading misa from target
Debug: 252 13 riscv-013.c:5083 riscv013_get_register(): [riscv.cpu] reading register misa
Debug: 253 13 riscv-013.c:1567 register_read_direct(): [riscv.cpu] Reading misa
Debug: 254 13 riscv-013.c:664 riscv013_execute_abstract_command(): [riscv.cpu] access register=0x220301 {regno=0x301 write=arg0 transfer=enabled postexec=disabled aarpostincrement=disabled aarsize=32bit}
Debug: 255 13 batch.c:291 riscv_batch_run_from(): [riscv.cpu] Running batch of scans [0, 3)
Debug: 256 13 batch.c:255 log_batch(): 40b w 00220301 @17 -> + 00000000 @00; 1i
Debug: 257 13 batch.c:199 log_dmi_decoded(): write: command=0x220301 {control=0x220301}
Debug: 258 13 batch.c:255 log_batch(): 40b r 00000000 @16 -> + 00220301 @17; 1i
Debug: 259 13 batch.c:255 log_batch(): 40b - 00000000 @00 -> + 02000002 @16; 1i
Debug: 260 13 batch.c:199 log_dmi_decoded(): read: abstractcs=0x2000002 {datacount=2 progbufsize=2}
Debug: 261 13 riscv-013.c:623 abstract_cmd_batch_check_and_clear_cmderr(): [riscv.cpu] abstractcs=0x2000002 {datacount=2 relaxedpriv=full_checks busy=ready progbufsize=2 cmderr=none}
Debug: 262 13 batch.c:291 riscv_batch_run_from(): [riscv.cpu] Running batch of scans [0, 2)
Debug: 263 13 batch.c:255 log_batch(): 40b r 00000000 @04 -> + 00000000 @00; 1i
Debug: 264 13 batch.c:255 log_batch(): 40b - 00000000 @00 -> + 4034112d @04; 1i
Debug: 265 13 batch.c:199 log_dmi_decoded(): read: 
Debug: 266 13 riscv-013.c:1586 register_read_direct(): [riscv.cpu] misa = 0x4034112d
Debug: 267 13 riscv_reg.c:999 riscv_reg_get(): [riscv.cpu] Read misa: 0x4034112d
Debug: 268 13 riscv-013_reg.c:249 check_misa_mxl(): [riscv.cpu]  XLEN=32, misa=0x4034112d
Debug: 269 13 riscv_reg.c:990 riscv_reg_get(): [riscv.cpu] Reading vlenb from target
Debug: 270 13 riscv-013.c:5083 riscv013_get_register(): [riscv.cpu] reading register vlenb
Debug: 271 13 riscv-013.c:1567 register_read_direct(): [riscv.cpu] Reading vlenb
Debug: 272 13 riscv-013.c:1065 prep_for_register_access(): [riscv.cpu] Preparing mstatus to access vlenb
Debug: 273 13 riscv_reg.c:990 riscv_reg_get(): [riscv.cpu] Reading mstatus from target
Debug: 274 13 riscv-013.c:5083 riscv013_get_register(): [riscv.cpu] reading register mstatus
Debug: 275 13 riscv-013.c:1567 register_read_direct(): [riscv.cpu] Reading mstatus
Debug: 276 13 riscv-013.c:664 riscv013_execute_abstract_command(): [riscv.cpu] access register=0x220300 {regno=0x300 write=arg0 transfer=enabled postexec=disabled aarpostincrement=disabled aarsize=32bit}
Debug: 277 13 batch.c:291 riscv_batch_run_from(): [riscv.cpu] Running batch of scans [0, 3)
Debug: 278 13 batch.c:255 log_batch(): 40b w 00220300 @17 -> + 00000000 @00; 1i
Debug: 279 13 batch.c:199 log_dmi_decoded(): write: command=0x220300 {control=0x220300}
Debug: 280 13 batch.c:255 log_batch(): 40b r 00000000 @16 -> + 00220300 @17; 1i
Debug: 281 13 batch.c:255 log_batch(): 40b - 00000000 @00 -> + 02000002 @16; 1i
Debug: 282 13 batch.c:199 log_dmi_decoded(): read: abstractcs=0x2000002 {datacount=2 progbufsize=2}
Debug: 283 13 riscv-013.c:623 abstract_cmd_batch_check_and_clear_cmderr(): [riscv.cpu] abstractcs=0x2000002 {datacount=2 relaxedpriv=full_checks busy=ready progbufsize=2 cmderr=none}
Debug: 284 13 batch.c:291 riscv_batch_run_from(): [riscv.cpu] Running batch of scans [0, 2)
Debug: 285 13 batch.c:255 log_batch(): 40b r 00000000 @04 -> + 00000000 @00; 1i
Debug: 286 13 batch.c:255 log_batch(): 40b - 00000000 @00 -> + 00001800 @04; 1i
Debug: 287 13 batch.c:199 log_dmi_decoded(): read: 
Debug: 288 13 riscv-013.c:1586 register_read_direct(): [riscv.cpu] mstatus = 0x1800
Debug: 289 13 riscv_reg.c:999 riscv_reg_get(): [riscv.cpu] Read mstatus: 0x1800
Debug: 290 13 riscv_reg.c:867 riscv_set_or_write_register(): [riscv.cpu] Writing to target: mstatus <- 0x1a00 (cacheable=false, valid=false, dirty=false)
Debug: 291 13 riscv-013.c:5099 riscv013_set_register(): [riscv.cpu] writing 0x1a00 to register mstatus
Debug: 292 13 riscv-013.c:1538 register_write_direct(): [riscv.cpu] Writing 0x1a00 to mstatus
Debug: 293 13 riscv-013.c:901 register_write_abstract(): [riscv.cpu] access register=0x230300 {regno=0x300 write=register transfer=enabled postexec=disabled aarpostincrement=disabled aarsize=32bit}
Debug: 294 13 batch.c:291 riscv_batch_run_from(): [riscv.cpu] Running batch of scans [0, 4)
Debug: 295 14 batch.c:255 log_batch(): 40b w 00001a00 @04 -> + 00000000 @00; 1i
Debug: 296 14 batch.c:199 log_dmi_decoded(): write: 
Debug: 297 14 batch.c:255 log_batch(): 40b w 00230300 @17 -> + 00001a00 @04; 1i
Debug: 298 14 batch.c:199 log_dmi_decoded(): write: command=0x230300 {control=0x230300}
Debug: 299 14 batch.c:255 log_batch(): 40b r 00000000 @16 -> + 00230300 @17; 1i
Debug: 300 14 batch.c:255 log_batch(): 40b - 00000000 @00 -> + 02000002 @16; 1i
Debug: 301 14 batch.c:199 log_dmi_decoded(): read: abstractcs=0x2000002 {datacount=2 progbufsize=2}
Debug: 302 14 riscv-013.c:623 abstract_cmd_batch_check_and_clear_cmderr(): [riscv.cpu] abstractcs=0x2000002 {datacount=2 relaxedpriv=full_checks busy=ready progbufsize=2 cmderr=none}
Debug: 303 14 riscv-013.c:1557 register_write_direct(): [riscv.cpu] mstatus <- 0x1a00
Debug: 304 14 riscv_reg.c:883 riscv_set_or_write_register(): [riscv.cpu] Wrote 0x1a00 to mstatus (cacheable=false, valid=false, dirty=false)
Debug: 305 14 riscv-013.c:1085 prep_for_register_access(): [riscv.cpu] Prepared to access vlenb (mstatus=0x1a00)
Debug: 306 14 riscv-013.c:664 riscv013_execute_abstract_command(): [riscv.cpu] access register=0x220c22 {regno=0xc22 write=arg0 transfer=enabled postexec=disabled aarpostincrement=disabled aarsize=32bit}
Debug: 307 14 batch.c:291 riscv_batch_run_from(): [riscv.cpu] Running batch of scans [0, 3)
Debug: 308 14 batch.c:255 log_batch(): 40b w 00220c22 @17 -> + 00000000 @00; 1i
Debug: 309 14 batch.c:199 log_dmi_decoded(): write: command=0x220c22 {control=0x220c22}
Debug: 310 14 batch.c:255 log_batch(): 40b r 00000000 @16 -> + 00220c22 @17; 1i
Debug: 311 14 batch.c:255 log_batch(): 40b - 00000000 @00 -> + 02000002 @16; 1i
Debug: 312 14 batch.c:199 log_dmi_decoded(): read: abstractcs=0x2000002 {datacount=2 progbufsize=2}
Debug: 313 14 riscv-013.c:623 abstract_cmd_batch_check_and_clear_cmderr(): [riscv.cpu] abstractcs=0x2000002 {datacount=2 relaxedpriv=full_checks busy=ready progbufsize=2 cmderr=none}
Debug: 314 14 batch.c:291 riscv_batch_run_from(): [riscv.cpu] Running batch of scans [0, 2)
Debug: 315 14 batch.c:255 log_batch(): 40b r 00000000 @04 -> + 00000000 @00; 1i
Debug: 316 14 batch.c:255 log_batch(): 40b - 00000000 @00 -> + 00000010 @04; 1i
Debug: 317 14 batch.c:199 log_dmi_decoded(): read: 
Debug: 318 14 riscv-013.c:1097 cleanup_after_register_access(): [riscv.cpu] Restoring mstatus to 0x1800
Debug: 319 14 riscv_reg.c:867 riscv_set_or_write_register(): [riscv.cpu] Writing to target: mstatus <- 0x1800 (cacheable=false, valid=false, dirty=false)
Debug: 320 14 riscv-013.c:5099 riscv013_set_register(): [riscv.cpu] writing 0x1800 to register mstatus
Debug: 321 14 riscv-013.c:1538 register_write_direct(): [riscv.cpu] Writing 0x1800 to mstatus
Debug: 322 14 riscv-013.c:901 register_write_abstract(): [riscv.cpu] access register=0x230300 {regno=0x300 write=register transfer=enabled postexec=disabled aarpostincrement=disabled aarsize=32bit}
Debug: 323 14 batch.c:291 riscv_batch_run_from(): [riscv.cpu] Running batch of scans [0, 4)
Debug: 324 14 batch.c:255 log_batch(): 40b w 00001800 @04 -> + 00000000 @00; 1i
Debug: 325 14 batch.c:199 log_dmi_decoded(): write: 
Debug: 326 14 batch.c:255 log_batch(): 40b w 00230300 @17 -> + 00001800 @04; 1i
Debug: 327 14 batch.c:199 log_dmi_decoded(): write: command=0x230300 {control=0x230300}
Debug: 328 14 batch.c:255 log_batch(): 40b r 00000000 @16 -> + 00230300 @17; 1i
Debug: 329 14 batch.c:255 log_batch(): 40b - 00000000 @00 -> + 02000002 @16; 1i
Debug: 330 14 batch.c:199 log_dmi_decoded(): read: abstractcs=0x2000002 {datacount=2 progbufsize=2}
Debug: 331 14 riscv-013.c:623 abstract_cmd_batch_check_and_clear_cmderr(): [riscv.cpu] abstractcs=0x2000002 {datacount=2 relaxedpriv=full_checks busy=ready progbufsize=2 cmderr=none}
Debug: 332 14 riscv-013.c:1557 register_write_direct(): [riscv.cpu] mstatus <- 0x1800
Debug: 333 14 riscv_reg.c:883 riscv_set_or_write_register(): [riscv.cpu] Wrote 0x1800 to mstatus (cacheable=false, valid=false, dirty=false)
Debug: 334 14 riscv-013.c:1586 register_read_direct(): [riscv.cpu] vlenb = 0x10
Debug: 335 14 riscv_reg.c:999 riscv_reg_get(): [riscv.cpu] Read vlenb: 0x10
Info : 336 14 riscv-013_reg.c:161 examine_vlenb(): [riscv.cpu] Vector support with vlenb=16
Debug: 337 14 riscv_reg.c:990 riscv_reg_get(): [riscv.cpu] Reading mtopi from target
Debug: 338 14 riscv-013.c:5083 riscv013_get_register(): [riscv.cpu] reading register mtopi
Debug: 339 14 riscv-013.c:1567 register_read_direct(): [riscv.cpu] Reading mtopi
Debug: 340 14 riscv-013.c:664 riscv013_execute_abstract_command(): [riscv.cpu] access register=0x220fb0 {regno=0xfb0 write=arg0 transfer=enabled postexec=disabled aarpostincrement=disabled aarsize=32bit}
Debug: 341 14 batch.c:291 riscv_batch_run_from(): [riscv.cpu] Running batch of scans [0, 3)
Debug: 342 14 batch.c:255 log_batch(): 40b w 00220fb0 @17 -> + 00000000 @00; 1i
Debug: 343 14 batch.c:199 log_dmi_decoded(): write: command=0x220fb0 {control=0x220fb0}
Debug: 344 14 batch.c:255 log_batch(): 40b r 00000000 @16 -> + 00220fb0 @17; 1i
Debug: 345 14 batch.c:255 log_batch(): 40b - 00000000 @00 -> + 02000302 @16; 1i
Debug: 346 14 batch.c:199 log_dmi_decoded(): read: abstractcs=0x2000302 {datacount=2 progbufsize=2 cmderr=exception}
Debug: 347 14 riscv-013.c:623 abstract_cmd_batch_check_and_clear_cmderr(): [riscv.cpu] abstractcs=0x2000302 {datacount=2 relaxedpriv=full_checks busy=ready progbufsize=2 cmderr=exception}
Debug: 348 14 riscv-013.c:645 abstract_cmd_batch_check_and_clear_cmderr(): [riscv.cpu] Abstract Command execution failed (abstractcs.cmderr = 3).
Debug: 349 15 batch.c:291 riscv_batch_run_from(): [riscv.cpu] Running batch of scans [0, 2)
Debug: 350 15 batch.c:255 log_batch(): 40b w 00000700 @16 -> + 00000000 @00; 1i
Debug: 351 15 batch.c:199 log_dmi_decoded(): write: abstractcs=0x700 {cmderr=other}
Debug: 352 15 batch.c:255 log_batch(): 40b - 00000000 @00 -> + 00000700 @16; 1i
Debug: 353 15 riscv-013_reg.c:382 riscv013_reg_save(): [riscv.cpu] Saving fp
Debug: 354 15 riscv_reg.c:990 riscv_reg_get(): [riscv.cpu] Reading fp from target
Debug: 355 15 riscv-013.c:5083 riscv013_get_register(): [riscv.cpu] reading register fp
Debug: 356 15 riscv-013.c:1567 register_read_direct(): [riscv.cpu] Reading fp
Debug: 357 15 riscv-013.c:664 riscv013_execute_abstract_command(): [riscv.cpu] access register=0x221008 {regno=0x1008 write=arg0 transfer=enabled postexec=disabled aarpostincrement=disabled aarsize=32bit}
Debug: 358 15 batch.c:291 riscv_batch_run_from(): [riscv.cpu] Running batch of scans [0, 3)
Debug: 359 15 batch.c:255 log_batch(): 40b w 00221008 @17 -> + 00000000 @00; 1i
Debug: 360 15 batch.c:199 log_dmi_decoded(): write: command=0x221008 {control=0x221008}
Debug: 361 15 batch.c:255 log_batch(): 40b r 00000000 @16 -> + 00221008 @17; 1i
Debug: 362 15 batch.c:255 log_batch(): 40b - 00000000 @00 -> + 02000002 @16; 1i
Debug: 363 15 batch.c:199 log_dmi_decoded(): read: abstractcs=0x2000002 {datacount=2 progbufsize=2}
Debug: 364 15 riscv-013.c:623 abstract_cmd_batch_check_and_clear_cmderr(): [riscv.cpu] abstractcs=0x2000002 {datacount=2 relaxedpriv=full_checks busy=ready progbufsize=2 cmderr=none}
Debug: 365 15 batch.c:291 riscv_batch_run_from(): [riscv.cpu] Running batch of scans [0, 2)
Debug: 366 15 batch.c:255 log_batch(): 40b r 00000000 @04 -> + 00000000 @00; 1i
Debug: 367 15 batch.c:255 log_batch(): 40b - 00000000 @00 -> + 10110278 @04; 1i
Debug: 368 15 batch.c:199 log_dmi_decoded(): read: 
Debug: 369 15 riscv-013.c:1586 register_read_direct(): [riscv.cpu] fp = 0x10110278
Debug: 370 15 riscv_reg.c:999 riscv_reg_get(): [riscv.cpu] Read fp: 0x10110278
Debug: 371 15 program.c:33 riscv_program_write(): [riscv.cpu] progbuf[00] = DASM(0xfb002473)
Debug: 372 15 batch.c:291 riscv_batch_run_from(): [riscv.cpu] Running batch of scans [0, 2)
Debug: 373 15 batch.c:255 log_batch(): 40b w fb002473 @20 -> + 00000000 @00; 1i
Debug: 374 15 batch.c:199 log_dmi_decoded(): write: 
Debug: 375 15 batch.c:255 log_batch(): 40b - 00000000 @00 -> + fb002473 @20; 1i
Debug: 376 15 program.c:33 riscv_program_write(): [riscv.cpu] progbuf[01] = DASM(0x00100073)
Debug: 377 15 batch.c:291 riscv_batch_run_from(): [riscv.cpu] Running batch of scans [0, 2)
Debug: 378 15 batch.c:255 log_batch(): 40b w 00100073 @21 -> + 00000000 @00; 1i
Debug: 379 15 batch.c:199 log_dmi_decoded(): write: 
Debug: 380 15 batch.c:255 log_batch(): 40b - 00000000 @00 -> + 00100073 @21; 1i
Debug: 381 15 riscv-013.c:664 riscv013_execute_abstract_command(): [riscv.cpu] access register=0x241000 {regno=0x1000 write=arg0 transfer=disabled postexec=enabled aarpostincrement=disabled aarsize=32bit}
Debug: 382 15 batch.c:291 riscv_batch_run_from(): [riscv.cpu] Running batch of scans [0, 3)
Debug: 383 15 batch.c:255 log_batch(): 40b w 00241000 @17 -> + 00000000 @00; 1i
Debug: 384 15 batch.c:199 log_dmi_decoded(): write: command=0x241000 {control=0x241000}
Debug: 385 15 batch.c:255 log_batch(): 40b r 00000000 @16 -> + 00241000 @17; 1i
Debug: 386 15 batch.c:255 log_batch(): 40b - 00000000 @00 -> + 02000302 @16; 1i
Debug: 387 15 batch.c:199 log_dmi_decoded(): read: abstractcs=0x2000302 {datacount=2 progbufsize=2 cmderr=exception}
Debug: 388 15 riscv-013.c:623 abstract_cmd_batch_check_and_clear_cmderr(): [riscv.cpu] abstractcs=0x2000302 {datacount=2 relaxedpriv=full_checks busy=ready progbufsize=2 cmderr=exception}
Debug: 389 15 riscv-013.c:645 abstract_cmd_batch_check_and_clear_cmderr(): [riscv.cpu] Abstract Command execution failed (abstractcs.cmderr = 3).
Debug: 390 15 batch.c:291 riscv_batch_run_from(): [riscv.cpu] Running batch of scans [0, 2)
Debug: 391 15 batch.c:255 log_batch(): 40b w 00000700 @16 -> + 00000000 @00; 1i
Debug: 392 15 batch.c:199 log_dmi_decoded(): write: abstractcs=0x700 {cmderr=other}
Debug: 393 15 batch.c:255 log_batch(): 40b - 00000000 @00 -> + 00000700 @16; 1i
Debug: 394 15 program.c:65 riscv_program_exec(): [riscv.cpu] Unable to execute program 0x7ffc1fd9f740
Debug: 395 17 riscv-013.c:1617 set_dcsr_ebreak(): [riscv.cpu] Set dcsr.ebreak*
Debug: 396 17 riscv_reg.c:990 riscv_reg_get(): [riscv.cpu] Reading dcsr from target
Debug: 397 17 riscv-013.c:5083 riscv013_get_register(): [riscv.cpu] reading register dcsr
Debug: 398 17 riscv-013.c:1567 register_read_direct(): [riscv.cpu] Reading dcsr
Debug: 399 17 riscv-013.c:664 riscv013_execute_abstract_command(): [riscv.cpu] access register=0x2207b0 {regno=0x7b0 write=arg0 transfer=enabled postexec=disabled aarpostincrement=disabled aarsize=32bit}
Debug: 400 17 batch.c:291 riscv_batch_run_from(): [riscv.cpu] Running batch of scans [0, 3)
Debug: 401 17 batch.c:255 log_batch(): 40b w 002207b0 @17 -> + 00000000 @00; 1i
Debug: 402 17 batch.c:199 log_dmi_decoded(): write: command=0x2207b0 {control=0x2207b0}
Debug: 403 17 batch.c:255 log_batch(): 40b r 00000000 @16 -> + 002207b0 @17; 1i
Debug: 404 17 batch.c:255 log_batch(): 40b - 00000000 @00 -> + 02000002 @16; 1i
Debug: 405 17 batch.c:199 log_dmi_decoded(): read: abstractcs=0x2000002 {datacount=2 progbufsize=2}
Debug: 406 17 riscv-013.c:623 abstract_cmd_batch_check_and_clear_cmderr(): [riscv.cpu] abstractcs=0x2000002 {datacount=2 relaxedpriv=full_checks busy=ready progbufsize=2 cmderr=none}
Debug: 407 17 batch.c:291 riscv_batch_run_from(): [riscv.cpu] Running batch of scans [0, 2)
Debug: 408 17 batch.c:255 log_batch(): 40b r 00000000 @04 -> + 00000000 @00; 1i
Debug: 409 17 batch.c:255 log_batch(): 40b - 00000000 @00 -> + 400000c3 @04; 1i
Debug: 410 17 batch.c:199 log_dmi_decoded(): read: 
Debug: 411 17 riscv-013.c:1586 register_read_direct(): [riscv.cpu] dcsr = 0x400000c3
Debug: 412 17 riscv_reg.c:999 riscv_reg_get(): [riscv.cpu] Read dcsr: 0x400000c3
Debug: 413 17 riscv_reg.c:867 riscv_set_or_write_register(): [riscv.cpu] Writing to target: dcsr <- 0x4003b0c3 (cacheable=false, valid=true, dirty=false)
Debug: 414 17 riscv-013.c:5099 riscv013_set_register(): [riscv.cpu] writing 0x4003b0c3 to register dcsr
Debug: 415 17 riscv-013.c:1538 register_write_direct(): [riscv.cpu] Writing 0x4003b0c3 to dcsr
Debug: 416 17 riscv-013.c:901 register_write_abstract(): [riscv.cpu] access register=0x2307b0 {regno=0x7b0 write=register transfer=enabled postexec=disabled aarpostincrement=disabled aarsize=32bit}
Debug: 417 17 batch.c:291 riscv_batch_run_from(): [riscv.cpu] Running batch of scans [0, 4)
Debug: 418 18 batch.c:255 log_batch(): 40b w 4003b0c3 @04 -> + 00000000 @00; 1i
Debug: 419 18 batch.c:199 log_dmi_decoded(): write: 
Debug: 420 18 batch.c:255 log_batch(): 40b w 002307b0 @17 -> + 4003b0c3 @04; 1i
Debug: 421 18 batch.c:199 log_dmi_decoded(): write: command=0x2307b0 {control=0x2307b0}
Debug: 422 18 batch.c:255 log_batch(): 40b r 00000000 @16 -> + 002307b0 @17; 1i
Debug: 423 18 batch.c:255 log_batch(): 40b - 00000000 @00 -> + 02000002 @16; 1i
Debug: 424 18 batch.c:199 log_dmi_decoded(): read: abstractcs=0x2000002 {datacount=2 progbufsize=2}
Debug: 425 18 riscv-013.c:623 abstract_cmd_batch_check_and_clear_cmderr(): [riscv.cpu] abstractcs=0x2000002 {datacount=2 relaxedpriv=full_checks busy=ready progbufsize=2 cmderr=none}
Debug: 426 18 riscv-013.c:1557 register_write_direct(): [riscv.cpu] dcsr <- 0x4003b0c3
Debug: 427 18 riscv_reg.c:883 riscv_set_or_write_register(): [riscv.cpu] Wrote 0x4003b0c3 to dcsr (cacheable=false, valid=false, dirty=false)
Debug: 428 18 riscv-013.c:5449 riscv013_step_or_resume_current_hart(): [riscv.cpu] resuming (operation=resume)
Debug: 429 18 riscv_reg.c:792 riscv_reg_flush_all(): [riscv.cpu] Flushing register cache
Debug: 430 18 riscv_reg.c:803 riscv_reg_flush_all(): [riscv.cpu] fp is dirty; write back 0x10110278
Debug: 431 18 riscv_reg.c:867 riscv_set_or_write_register(): [riscv.cpu] Writing to target: fp <- 0x10110278 (cacheable=true, valid=true, dirty=true)
Debug: 432 18 riscv-013.c:5099 riscv013_set_register(): [riscv.cpu] writing 0x10110278 to register fp
Debug: 433 18 riscv-013.c:1538 register_write_direct(): [riscv.cpu] Writing 0x10110278 to fp
Debug: 434 18 riscv-013.c:901 register_write_abstract(): [riscv.cpu] access register=0x231008 {regno=0x1008 write=register transfer=enabled postexec=disabled aarpostincrement=disabled aarsize=32bit}
Debug: 435 18 batch.c:291 riscv_batch_run_from(): [riscv.cpu] Running batch of scans [0, 4)
Debug: 436 18 batch.c:255 log_batch(): 40b w 10110278 @04 -> + 00000000 @00; 1i
Debug: 437 18 batch.c:199 log_dmi_decoded(): write: 
Debug: 438 18 batch.c:255 log_batch(): 40b w 00231008 @17 -> + 10110278 @04; 1i
Debug: 439 18 batch.c:199 log_dmi_decoded(): write: command=0x231008 {control=0x231008}
Debug: 440 18 batch.c:255 log_batch(): 40b r 00000000 @16 -> + 00231008 @17; 1i
Debug: 441 18 batch.c:255 log_batch(): 40b - 00000000 @00 -> + 02000002 @16; 1i
Debug: 442 18 batch.c:199 log_dmi_decoded(): read: abstractcs=0x2000002 {datacount=2 progbufsize=2}
Debug: 443 18 riscv-013.c:623 abstract_cmd_batch_check_and_clear_cmderr(): [riscv.cpu] abstractcs=0x2000002 {datacount=2 relaxedpriv=full_checks busy=ready progbufsize=2 cmderr=none}
Debug: 444 18 riscv-013.c:1557 register_write_direct(): [riscv.cpu] fp <- 0x10110278
Debug: 445 18 riscv_reg.c:883 riscv_set_or_write_register(): [riscv.cpu] Wrote 0x10110278 to fp (cacheable=true, valid=true, dirty=false)
Debug: 446 19 riscv_reg.c:809 riscv_reg_flush_all(): [riscv.cpu] Flush of register cache completed
Debug: 447 19 riscv_reg.c:915 riscv_reg_cache_invalidate_all(): [riscv.cpu] Invalidating register cache.
Debug: 448 19 batch.c:291 riscv_batch_run_from(): [riscv.cpu] Running batch of scans [0, 2)
Debug: 449 19 batch.c:255 log_batch(): 40b w 40000001 @10 -> + 00000000 @00; 1i
Debug: 450 19 batch.c:199 log_dmi_decoded(): write: dmcontrol=0x40000001 {dmactive=active resumereq=1}
Debug: 451 19 batch.c:255 log_batch(): 40b - 00000000 @00 -> + 40000001 @10; 1i
Debug: 452 19 batch.c:291 riscv_batch_run_from(): [riscv.cpu] Running batch of scans [0, 2)
Debug: 453 19 batch.c:255 log_batch(): 40b r 00000000 @11 -> + 00000000 @00; 1i
Debug: 454 19 batch.c:255 log_batch(): 40b - 00000000 @00 -> + 00430c82 @11; 1i
Debug: 455 19 batch.c:199 log_dmi_decoded(): read: dmstatus=0x430c82 {version=0_13 anyrunning=1 allrunning=1 anyresumeack=1 allresumeack=1 impebreak=1 authenticated=true}
Debug: 456 19 batch.c:291 riscv_batch_run_from(): [riscv.cpu] Running batch of scans [0, 2)
Debug: 457 19 batch.c:255 log_batch(): 40b w 00000001 @10 -> + 00000000 @00; 1i
Debug: 458 19 batch.c:199 log_dmi_decoded(): write: dmcontrol=1 {dmactive=active}
Debug: 459 19 batch.c:255 log_batch(): 40b - 00000000 @00 -> + 00000001 @10; 1i
Info : 460 19 riscv-013.c:2090 examine(): [riscv.cpu] Examined RISC-V core
Info : 461 19 riscv-013.c:2091 examine(): [riscv.cpu]  XLEN=32, misa=0x4034112d
User : 462 19 target.c:688 target_examine_one(): [riscv.cpu] Target successfully examined.
Debug: 463 19 target.c:1780 target_call_event_callbacks(): target event 21 (examine-end) for core riscv.cpu
Info : 464 19 target.c:692 target_examine_one(): [riscv.cpu] Examination succeed
Debug: 465 19 command.c:153 script_debug(): command - halt
Debug: 466 19 target.c:3246 handle_halt_command(): -
Debug: 467 19 riscv.c:2707 riscv_halt(): [riscv.cpu] halting all harts
Debug: 468 19 riscv.c:2628 halt_prep(): [riscv.cpu] prep hart, debug_reason=5
Debug: 469 19 batch.c:291 riscv_batch_run_from(): [riscv.cpu] Running batch of scans [0, 2)
Debug: 470 19 batch.c:255 log_batch(): 40b r 00000000 @11 -> + 00000000 @00; 1i
Debug: 471 19 batch.c:255 log_batch(): 40b - 00000000 @00 -> + 00430c82 @11; 1i
Debug: 472 19 batch.c:199 log_dmi_decoded(): read: dmstatus=0x430c82 {version=0_13 anyrunning=1 allrunning=1 anyresumeack=1 allresumeack=1 impebreak=1 authenticated=true}
Debug: 473 19 riscv_reg.c:915 riscv_reg_cache_invalidate_all(): [riscv.cpu] Invalidating register cache.
Debug: 474 19 riscv-013.c:5159 select_prepped_harts(): [riscv.cpu] index=0, prepped=1
Debug: 475 19 riscv-013.c:5213 riscv013_halt_go(): [riscv.cpu] halting hart
Debug: 476 19 batch.c:291 riscv_batch_run_from(): [riscv.cpu] Running batch of scans [0, 2)
Debug: 477 19 batch.c:255 log_batch(): 40b w 80000001 @10 -> + 00000000 @00; 1i
Debug: 478 19 batch.c:199 log_dmi_decoded(): write: dmcontrol=0x80000001 {dmactive=active haltreq=1}
Debug: 479 19 batch.c:255 log_batch(): 40b - 00000000 @00 -> + 80000001 @10; 1i
Debug: 480 19 batch.c:291 riscv_batch_run_from(): [riscv.cpu] Running batch of scans [0, 2)
Debug: 481 19 batch.c:255 log_batch(): 40b r 00000000 @11 -> + 00000000 @00; 1i
Debug: 482 19 batch.c:255 log_batch(): 40b - 00000000 @00 -> + 00430382 @11; 1i
Debug: 483 19 batch.c:199 log_dmi_decoded(): read: dmstatus=0x430382 {version=0_13 anyresumeack=1 allresumeack=1 impebreak=1 authenticated=true anyhalted=1 allhalted=1}
Debug: 484 19 batch.c:291 riscv_batch_run_from(): [riscv.cpu] Running batch of scans [0, 2)
Debug: 485 19 batch.c:255 log_batch(): 40b w 00000001 @10 -> + 00000000 @00; 1i
Debug: 486 19 batch.c:199 log_dmi_decoded(): write: dmcontrol=1 {dmactive=active}
Debug: 487 19 batch.c:255 log_batch(): 40b - 00000000 @00 -> + 00000001 @10; 1i
Debug: 488 19 target.c:1780 target_call_event_callbacks(): target event 0 (gdb-halt) for core riscv.cpu
Debug: 489 19 target.c:1780 target_call_event_callbacks(): target event 1 (halted) for core riscv.cpu
User : 490 19 riscv.c:3574 riscv_arch_state(): riscv.cpu halted due to debug-request.
Debug: 491 19 riscv.c:4029 riscv_openocd_poll(): [riscv.cpu] Polling all harts.
Debug: 492 19 riscv.c:3852 riscv_poll_hart(): [riscv.cpu] polling, target->state=2
Debug: 493 19 batch.c:291 riscv_batch_run_from(): [riscv.cpu] Running batch of scans [0, 2)
Debug: 494 20 batch.c:255 log_batch(): 40b r 00000000 @11 -> + 00000000 @00; 1i
Debug: 495 20 batch.c:255 log_batch(): 40b - 00000000 @00 -> + 00430382 @11; 1i
Debug: 496 20 batch.c:199 log_dmi_decoded(): read: dmstatus=0x430382 {version=0_13 anyresumeack=1 allresumeack=1 impebreak=1 authenticated=true anyhalted=1 allhalted=1}
Debug: 497 20 riscv.c:4085 riscv_openocd_poll(): [riscv.cpu] should_remain_halted=0, should_resume=0
Info : 498 20 server.c:298 add_service(): Listening on port 6666 for tcl connections
Info : 499 20 server.c:298 add_service(): Listening on port 4444 for telnet connections
Debug: 500 20 command.c:153 script_debug(): command - init
Debug: 501 103 riscv.c:4029 riscv_openocd_poll(): [riscv.cpu] Polling all harts.
Debug: 502 103 riscv.c:3852 riscv_poll_hart(): [riscv.cpu] polling, target->state=2
Debug: 503 103 batch.c:291 riscv_batch_run_from(): [riscv.cpu] Running batch of scans [0, 2)
Debug: 504 103 batch.c:255 log_batch(): 40b r 00000000 @11 -> + 00000000 @00; 1i
Debug: 505 103 batch.c:255 log_batch(): 40b - 00000000 @00 -> + 00430382 @11; 1i
Debug: 506 103 batch.c:199 log_dmi_decoded(): read: dmstatus=0x430382 {version=0_13 anyresumeack=1 allresumeack=1 impebreak=1 authenticated=true anyhalted=1 allhalted=1}
Debug: 507 103 riscv.c:4085 riscv_openocd_poll(): [riscv.cpu] should_remain_halted=0, should_resume=0
Debug: 508 103 target.c:3001 handle_target(): [riscv.cpu] target_poll() -> 0, next attempt in 100ms
Debug: 509 203 riscv.c:4029 riscv_openocd_poll(): [riscv.cpu] Polling all harts.
Debug: 510 203 riscv.c:3852 riscv_poll_hart(): [riscv.cpu] polling, target->state=2
Debug: 511 203 batch.c:291 riscv_batch_run_from(): [riscv.cpu] Running batch of scans [0, 2)
Debug: 512 204 batch.c:255 log_batch(): 40b r 00000000 @11 -> + 00000000 @00; 1i
Debug: 513 204 batch.c:255 log_batch(): 40b - 00000000 @00 -> + 00430382 @11; 1i
Debug: 514 204 batch.c:199 log_dmi_decoded(): read: dmstatus=0x430382 {version=0_13 anyresumeack=1 allresumeack=1 impebreak=1 authenticated=true anyhalted=1 allhalted=1}
Debug: 515 204 riscv_reg.c:792 riscv_reg_flush_all(): [riscv.cpu] Flushing register cache
Debug: 516 204 riscv_reg.c:809 riscv_reg_flush_all(): [riscv.cpu] Flush of register cache completed
Debug: 517 204 riscv.c:4085 riscv_openocd_poll(): [riscv.cpu] should_remain_halted=0, should_resume=0
Debug: 518 204 target.c:3001 handle_target(): [riscv.cpu] target_poll() -> 0, next attempt in 100ms
Debug: 519 303 riscv.c:4029 riscv_openocd_poll(): [riscv.cpu] Polling all harts.
Debug: 520 303 riscv.c:3852 riscv_poll_hart(): [riscv.cpu] polling, target->state=2
Debug: 521 303 batch.c:291 riscv_batch_run_from(): [riscv.cpu] Running batch of scans [0, 2)
Debug: 522 303 batch.c:255 log_batch(): 40b r 00000000 @11 -> + 00000000 @00; 1i
Debug: 523 303 batch.c:255 log_batch(): 40b - 00000000 @00 -> + 00430382 @11; 1i
Debug: 524 303 batch.c:199 log_dmi_decoded(): read: dmstatus=0x430382 {version=0_13 anyresumeack=1 allresumeack=1 impebreak=1 authenticated=true anyhalted=1 allhalted=1}
Debug: 525 303 riscv_reg.c:792 riscv_reg_flush_all(): [riscv.cpu] Flushing register cache
Debug: 526 303 riscv_reg.c:809 riscv_reg_flush_all(): [riscv.cpu] Flush of register cache completed
Debug: 527 303 riscv.c:4085 riscv_openocd_poll(): [riscv.cpu] should_remain_halted=0, should_resume=0
Debug: 528 303 target.c:3001 handle_target(): [riscv.cpu] target_poll() -> 0, next attempt in 100ms
Debug: 529 404 riscv.c:4029 riscv_openocd_poll(): [riscv.cpu] Polling all harts.
Debug: 530 404 riscv.c:3852 riscv_poll_hart(): [riscv.cpu] polling, target->state=2
Debug: 531 404 batch.c:291 riscv_batch_run_from(): [riscv.cpu] Running batch of scans [0, 2)
Debug: 532 404 batch.c:255 log_batch(): 40b r 00000000 @11 -> + 00000000 @00; 1i
Debug: 533 404 batch.c:255 log_batch(): 40b - 00000000 @00 -> + 00430382 @11; 1i
Debug: 534 404 batch.c:199 log_dmi_decoded(): read: dmstatus=0x430382 {version=0_13 anyresumeack=1 allresumeack=1 impebreak=1 authenticated=true anyhalted=1 allhalted=1}
Debug: 535 404 riscv_reg.c:792 riscv_reg_flush_all(): [riscv.cpu] Flushing register cache
Debug: 536 404 riscv_reg.c:809 riscv_reg_flush_all(): [riscv.cpu] Flush of register cache completed
Debug: 537 404 riscv.c:4085 riscv_openocd_poll(): [riscv.cpu] should_remain_halted=0, should_resume=0
Debug: 538 404 target.c:3001 handle_target(): [riscv.cpu] target_poll() -> 0, next attempt in 100ms
Debug: 539 504 riscv.c:4029 riscv_openocd_poll(): [riscv.cpu] Polling all harts.
Debug: 540 504 riscv.c:3852 riscv_poll_hart(): [riscv.cpu] polling, target->state=2
Debug: 541 504 batch.c:291 riscv_batch_run_from(): [riscv.cpu] Running batch of scans [0, 2)
Debug: 542 504 batch.c:255 log_batch(): 40b r 00000000 @11 -> + 00000000 @00; 1i
Debug: 543 504 batch.c:255 log_batch(): 40b - 00000000 @00 -> + 00430382 @11; 1i
Debug: 544 504 batch.c:199 log_dmi_decoded(): read: dmstatus=0x430382 {version=0_13 anyresumeack=1 allresumeack=1 impebreak=1 authenticated=true anyhalted=1 allhalted=1}
Debug: 545 504 riscv_reg.c:792 riscv_reg_flush_all(): [riscv.cpu] Flushing register cache
Debug: 546 504 riscv_reg.c:809 riscv_reg_flush_all(): [riscv.cpu] Flush of register cache completed
Debug: 547 505 riscv.c:4085 riscv_openocd_poll(): [riscv.cpu] should_remain_halted=0, should_resume=0
Debug: 548 505 target.c:3001 handle_target(): [riscv.cpu] target_poll() -> 0, next attempt in 100ms
Debug: 549 604 riscv.c:4029 riscv_openocd_poll(): [riscv.cpu] Polling all harts.
Debug: 550 604 riscv.c:3852 riscv_poll_hart(): [riscv.cpu] polling, target->state=2
Debug: 551 604 batch.c:291 riscv_batch_run_from(): [riscv.cpu] Running batch of scans [0, 2)
Debug: 552 604 batch.c:255 log_batch(): 40b r 00000000 @11 -> + 00000000 @00; 1i
Debug: 553 604 batch.c:255 log_batch(): 40b - 00000000 @00 -> + 00430382 @11; 1i
Debug: 554 604 batch.c:199 log_dmi_decoded(): read: dmstatus=0x430382 {version=0_13 anyresumeack=1 allresumeack=1 impebreak=1 authenticated=true anyhalted=1 allhalted=1}
Debug: 555 604 riscv_reg.c:792 riscv_reg_flush_all(): [riscv.cpu] Flushing register cache
Debug: 556 604 riscv_reg.c:809 riscv_reg_flush_all(): [riscv.cpu] Flush of register cache completed
Debug: 557 604 riscv.c:4085 riscv_openocd_poll(): [riscv.cpu] should_remain_halted=0, should_resume=0
Debug: 558 604 target.c:3001 handle_target(): [riscv.cpu] target_poll() -> 0, next attempt in 100ms
Debug: 559 704 riscv.c:4029 riscv_openocd_poll(): [riscv.cpu] Polling all harts.
Debug: 560 704 riscv.c:3852 riscv_poll_hart(): [riscv.cpu] polling, target->state=2
Debug: 561 704 batch.c:291 riscv_batch_run_from(): [riscv.cpu] Running batch of scans [0, 2)
Debug: 562 705 batch.c:255 log_batch(): 40b r 00000000 @11 -> + 00000000 @00; 1i
Debug: 563 705 batch.c:255 log_batch(): 40b - 00000000 @00 -> + 00430382 @11; 1i
Debug: 564 705 batch.c:199 log_dmi_decoded(): read: dmstatus=0x430382 {version=0_13 anyresumeack=1 allresumeack=1 impebreak=1 authenticated=true anyhalted=1 allhalted=1}
Debug: 565 705 riscv_reg.c:792 riscv_reg_flush_all(): [riscv.cpu] Flushing register cache
Debug: 566 705 riscv_reg.c:809 riscv_reg_flush_all(): [riscv.cpu] Flush of register cache completed
Debug: 567 705 riscv.c:4085 riscv_openocd_poll(): [riscv.cpu] should_remain_halted=0, should_resume=0
Debug: 568 705 target.c:3001 handle_target(): [riscv.cpu] target_poll() -> 0, next attempt in 100ms
Debug: 569 804 riscv.c:4029 riscv_openocd_poll(): [riscv.cpu] Polling all harts.
Debug: 570 804 riscv.c:3852 riscv_poll_hart(): [riscv.cpu] polling, target->state=2
Debug: 571 804 batch.c:291 riscv_batch_run_from(): [riscv.cpu] Running batch of scans [0, 2)
Debug: 572 804 batch.c:255 log_batch(): 40b r 00000000 @11 -> + 00000000 @00; 1i
Debug: 573 804 batch.c:255 log_batch(): 40b - 00000000 @00 -> + 00430382 @11; 1i
Debug: 574 804 batch.c:199 log_dmi_decoded(): read: dmstatus=0x430382 {version=0_13 anyresumeack=1 allresumeack=1 impebreak=1 authenticated=true anyhalted=1 allhalted=1}
Debug: 575 804 riscv_reg.c:792 riscv_reg_flush_all(): [riscv.cpu] Flushing register cache
Debug: 576 804 riscv_reg.c:809 riscv_reg_flush_all(): [riscv.cpu] Flush of register cache completed
Debug: 577 804 riscv.c:4085 riscv_openocd_poll(): [riscv.cpu] should_remain_halted=0, should_resume=0
Debug: 578 804 target.c:3001 handle_target(): [riscv.cpu] target_poll() -> 0, next attempt in 100ms
Debug: 579 904 riscv.c:4029 riscv_openocd_poll(): [riscv.cpu] Polling all harts.
Debug: 580 905 riscv.c:3852 riscv_poll_hart(): [riscv.cpu] polling, target->state=2
Debug: 581 905 batch.c:291 riscv_batch_run_from(): [riscv.cpu] Running batch of scans [0, 2)
Debug: 582 905 batch.c:255 log_batch(): 40b r 00000000 @11 -> + 00000000 @00; 1i
Debug: 583 905 batch.c:255 log_batch(): 40b - 00000000 @00 -> + 00430382 @11; 1i
Debug: 584 905 batch.c:199 log_dmi_decoded(): read: dmstatus=0x430382 {version=0_13 anyresumeack=1 allresumeack=1 impebreak=1 authenticated=true anyhalted=1 allhalted=1}
Debug: 585 905 riscv_reg.c:792 riscv_reg_flush_all(): [riscv.cpu] Flushing register cache
Debug: 586 905 riscv_reg.c:809 riscv_reg_flush_all(): [riscv.cpu] Flush of register cache completed
Debug: 587 905 riscv.c:4085 riscv_openocd_poll(): [riscv.cpu] should_remain_halted=0, should_resume=0
Debug: 588 905 target.c:3001 handle_target(): [riscv.cpu] target_poll() -> 0, next attempt in 100ms
Debug: 589 1004 riscv.c:4029 riscv_openocd_poll(): [riscv.cpu] Polling all harts.
Debug: 590 1004 riscv.c:3852 riscv_poll_hart(): [riscv.cpu] polling, target->state=2
Debug: 591 1004 batch.c:291 riscv_batch_run_from(): [riscv.cpu] Running batch of scans [0, 2)
Debug: 592 1004 batch.c:255 log_batch(): 40b r 00000000 @11 -> + 00000000 @00; 1i
Debug: 593 1004 batch.c:255 log_batch(): 40b - 00000000 @00 -> + 00430382 @11; 1i
Debug: 594 1004 batch.c:199 log_dmi_decoded(): read: dmstatus=0x430382 {version=0_13 anyresumeack=1 allresumeack=1 impebreak=1 authenticated=true anyhalted=1 allhalted=1}
Debug: 595 1004 riscv_reg.c:792 riscv_reg_flush_all(): [riscv.cpu] Flushing register cache
Debug: 596 1004 riscv_reg.c:809 riscv_reg_flush_all(): [riscv.cpu] Flush of register cache completed
Debug: 597 1004 riscv.c:4085 riscv_openocd_poll(): [riscv.cpu] should_remain_halted=0, should_resume=0
Debug: 598 1004 target.c:3001 handle_target(): [riscv.cpu] target_poll() -> 0, next attempt in 100ms
Debug: 599 1104 riscv.c:4029 riscv_openocd_poll(): [riscv.cpu] Polling all harts.
Debug: 600 1104 riscv.c:3852 riscv_poll_hart(): [riscv.cpu] polling, target->state=2
Debug: 601 1104 batch.c:291 riscv_batch_run_from(): [riscv.cpu] Running batch of scans [0, 2)
Debug: 602 1104 batch.c:255 log_batch(): 40b r 00000000 @11 -> + 00000000 @00; 1i
Debug: 603 1104 batch.c:255 log_batch(): 40b - 00000000 @00 -> + 00430382 @11; 1i
Debug: 604 1104 batch.c:199 log_dmi_decoded(): read: dmstatus=0x430382 {version=0_13 anyresumeack=1 allresumeack=1 impebreak=1 authenticated=true anyhalted=1 allhalted=1}
Debug: 605 1104 riscv_reg.c:792 riscv_reg_flush_all(): [riscv.cpu] Flushing register cache
Debug: 606 1104 riscv_reg.c:809 riscv_reg_flush_all(): [riscv.cpu] Flush of register cache completed
Debug: 607 1104 riscv.c:4085 riscv_openocd_poll(): [riscv.cpu] should_remain_halted=0, should_resume=0
Debug: 608 1104 target.c:3001 handle_target(): [riscv.cpu] target_poll() -> 0, next attempt in 100ms
Debug: 609 1204 riscv.c:4029 riscv_openocd_poll(): [riscv.cpu] Polling all harts.
Debug: 610 1204 riscv.c:3852 riscv_poll_hart(): [riscv.cpu] polling, target->state=2
Debug: 611 1204 batch.c:291 riscv_batch_run_from(): [riscv.cpu] Running batch of scans [0, 2)
Debug: 612 1205 batch.c:255 log_batch(): 40b r 00000000 @11 -> + 00000000 @00; 1i
Debug: 613 1205 batch.c:255 log_batch(): 40b - 00000000 @00 -> + 00430382 @11; 1i
Debug: 614 1205 batch.c:199 log_dmi_decoded(): read: dmstatus=0x430382 {version=0_13 anyresumeack=1 allresumeack=1 impebreak=1 authenticated=true anyhalted=1 allhalted=1}
Debug: 615 1205 riscv_reg.c:792 riscv_reg_flush_all(): [riscv.cpu] Flushing register cache
Debug: 616 1205 riscv_reg.c:809 riscv_reg_flush_all(): [riscv.cpu] Flush of register cache completed
Debug: 617 1205 riscv.c:4085 riscv_openocd_poll(): [riscv.cpu] should_remain_halted=0, should_resume=0
Debug: 618 1205 target.c:3001 handle_target(): [riscv.cpu] target_poll() -> 0, next attempt in 100ms
Debug: 619 1304 riscv.c:4029 riscv_openocd_poll(): [riscv.cpu] Polling all harts.
Debug: 620 1304 riscv.c:3852 riscv_poll_hart(): [riscv.cpu] polling, target->state=2
Debug: 621 1304 batch.c:291 riscv_batch_run_from(): [riscv.cpu] Running batch of scans [0, 2)
Debug: 622 1304 batch.c:255 log_batch(): 40b r 00000000 @11 -> + 00000000 @00; 1i
Debug: 623 1304 batch.c:255 log_batch(): 40b - 00000000 @00 -> + 00430382 @11; 1i
Debug: 624 1304 batch.c:199 log_dmi_decoded(): read: dmstatus=0x430382 {version=0_13 anyresumeack=1 allresumeack=1 impebreak=1 authenticated=true anyhalted=1 allhalted=1}
Debug: 625 1304 riscv_reg.c:792 riscv_reg_flush_all(): [riscv.cpu] Flushing register cache
Debug: 626 1304 riscv_reg.c:809 riscv_reg_flush_all(): [riscv.cpu] Flush of register cache completed
Debug: 627 1304 riscv.c:4085 riscv_openocd_poll(): [riscv.cpu] should_remain_halted=0, should_resume=0
Debug: 628 1304 target.c:3001 handle_target(): [riscv.cpu] target_poll() -> 0, next attempt in 100ms
Info : 629 1388 server.c:91 add_connection(): accepting 'gdb' connection on tcp/3333
Debug: 630 1388 breakpoints.c:319 breakpoint_remove_all_internal(): [riscv.cpu] Delete all breakpoints
Debug: 631 1388 breakpoints.c:690 watchpoint_clear_target(): [riscv.cpu] Delete all watchpoints
Debug: 632 1388 target.c:1780 target_call_event_callbacks(): target event 22 (gdb-attach) for core riscv.cpu
Debug: 633 1388 target.c:4658 target_handle_event(): target: riscv.cpu (riscv) event: 22 (gdb-attach) action: halt 1000
Debug: 634 1388 command.c:153 script_debug(): command - halt 1000
Debug: 635 1388 target.c:3246 handle_halt_command(): -
Debug: 636 1388 riscv.c:2707 riscv_halt(): [riscv.cpu] halting all harts
Debug: 637 1388 riscv.c:2628 halt_prep(): [riscv.cpu] prep hart, debug_reason=0
Debug: 638 1388 riscv.c:2631 halt_prep(): [riscv.cpu] Hart is already halted.
Debug: 639 1388 batch.c:291 riscv_batch_run_from(): [riscv.cpu] Running batch of scans [0, 2)
Debug: 640 1389 batch.c:255 log_batch(): 40b r 00000000 @11 -> + 00000000 @00; 1i
Debug: 641 1389 batch.c:255 log_batch(): 40b - 00000000 @00 -> + 00430382 @11; 1i
Debug: 642 1389 batch.c:199 log_dmi_decoded(): read: dmstatus=0x430382 {version=0_13 anyresumeack=1 allresumeack=1 impebreak=1 authenticated=true anyhalted=1 allhalted=1}
Debug: 643 1389 riscv.c:2651 riscv_halt_go_all_harts(): [riscv.cpu] Hart is already halted.
Debug: 644 1389 target.c:1780 target_call_event_callbacks(): target event 0 (gdb-halt) for core riscv.cpu
Debug: 645 1389 target.c:1780 target_call_event_callbacks(): target event 1 (halted) for core riscv.cpu
User : 646 1389 riscv.c:3574 riscv_arch_state(): riscv.cpu halted due to debug-request.
Debug: 647 1389 riscv.c:4029 riscv_openocd_poll(): [riscv.cpu] Polling all harts.
Debug: 648 1389 riscv.c:3852 riscv_poll_hart(): [riscv.cpu] polling, target->state=2
Debug: 649 1389 batch.c:291 riscv_batch_run_from(): [riscv.cpu] Running batch of scans [0, 2)
Debug: 650 1389 batch.c:255 log_batch(): 40b r 00000000 @11 -> + 00000000 @00; 1i
Debug: 651 1389 batch.c:255 log_batch(): 40b - 00000000 @00 -> + 00430382 @11; 1i
Debug: 652 1389 batch.c:199 log_dmi_decoded(): read: dmstatus=0x430382 {version=0_13 anyresumeack=1 allresumeack=1 impebreak=1 authenticated=true anyhalted=1 allhalted=1}
Debug: 653 1389 riscv_reg.c:792 riscv_reg_flush_all(): [riscv.cpu] Flushing register cache
Debug: 654 1389 riscv_reg.c:809 riscv_reg_flush_all(): [riscv.cpu] Flush of register cache completed
Debug: 655 1389 riscv.c:4085 riscv_openocd_poll(): [riscv.cpu] should_remain_halted=0, should_resume=0
Debug: 656 1389 gdb_server.c:1109 gdb_new_connection(): New GDB Connection: 1, Target riscv.cpu, state: halted
Debug: 657 1389 gdb_server.c:424 gdb_log_incoming_packet(): [riscv.cpu] {1} received packet: qSupported:multiprocess+;swbreak+;hwbreak+;qRelocInsn+;fork-events+;vfork-events+;exec-events+;vContSupported+;QThreadEvents+;no-resumed+;memory-tagging+
Debug: 658 1389 riscv.c:3514 riscv_get_gdb_reg_list_internal(): [riscv.cpu] reg_class=0, read=0
Debug: 659 1389 gdb_server.c:441 gdb_log_outgoing_packet(): [riscv.cpu] {1} sending packet: $PacketSize=4000;qXfer:memory-map:read-;qXfer:features:read+;qXfer:threads:read+;QStartNoAckMode+;vContSupported+#04
Debug: 660 1389 gdb_server.c:424 gdb_log_incoming_packet(): [riscv.cpu] {1} received packet: +
Debug: 661 1389 gdb_server.c:424 gdb_log_incoming_packet(): [riscv.cpu] {1} received packet: vMustReplyEmpty
Debug: 662 1389 gdb_server.c:441 gdb_log_outgoing_packet(): [riscv.cpu] {1} sending packet: $#00
Debug: 663 1389 gdb_server.c:424 gdb_log_incoming_packet(): [riscv.cpu] {1} received packet: +
Debug: 664 1389 gdb_server.c:424 gdb_log_incoming_packet(): [riscv.cpu] {1} received packet: QStartNoAckMode
Debug: 665 1389 gdb_server.c:441 gdb_log_outgoing_packet(): [riscv.cpu] {1} sending packet: $OK#9a
Debug: 666 1389 gdb_server.c:424 gdb_log_incoming_packet(): [riscv.cpu] {1} received packet: +
Debug: 667 1389 gdb_server.c:730 gdb_get_packet_inner(): Received first acknowledgment after entering noack mode. Ignoring it.
Debug: 668 1390 gdb_server.c:424 gdb_log_incoming_packet(): [riscv.cpu] {1} received packet: !
Debug: 669 1390 gdb_server.c:441 gdb_log_outgoing_packet(): [riscv.cpu] {1} sending packet: $OK#9a
Debug: 670 1390 gdb_server.c:424 gdb_log_incoming_packet(): [riscv.cpu] {1} received packet: Hg0
Debug: 671 1390 gdb_server.c:441 gdb_log_outgoing_packet(): [riscv.cpu] {1} sending packet: $OK#9a
Debug: 672 1390 gdb_server.c:424 gdb_log_incoming_packet(): [riscv.cpu] {1} received packet: qXfer:features:read:target.xml:0,1000
Debug: 673 1390 riscv.c:3514 riscv_get_gdb_reg_list_internal(): [riscv.cpu] reg_class=0, read=0
Debug: 674 1391 gdb_server.c:438 gdb_log_outgoing_packet(): [riscv.cpu] {1} sending packet: $<binary-data-4097-bytes>#83
Debug: 675 1391 gdb_server.c:424 gdb_log_incoming_packet(): [riscv.cpu] {1} received packet: qXfer:features:read:target.xml:1000,1000
Debug: 676 1391 gdb_server.c:438 gdb_log_outgoing_packet(): [riscv.cpu] {1} sending packet: $<binary-data-4097-bytes>#32
Debug: 677 1391 gdb_server.c:424 gdb_log_incoming_packet(): [riscv.cpu] {1} received packet: qXfer:features:read:target.xml:2000,1000
Debug: 678 1391 gdb_server.c:438 gdb_log_outgoing_packet(): [riscv.cpu] {1} sending packet: $<binary-data-4097-bytes>#51
Debug: 679 1392 gdb_server.c:424 gdb_log_incoming_packet(): [riscv.cpu] {1} received packet: qXfer:features:read:target.xml:3000,1000
Debug: 680 1392 gdb_server.c:438 gdb_log_outgoing_packet(): [riscv.cpu] {1} sending packet: $<binary-data-4097-bytes>#6e
Debug: 681 1392 gdb_server.c:424 gdb_log_incoming_packet(): [riscv.cpu] {1} received packet: qXfer:features:read:target.xml:4000,1000
Debug: 682 1392 gdb_server.c:438 gdb_log_outgoing_packet(): [riscv.cpu] {1} sending packet: $<binary-data-4097-bytes>#72
Debug: 683 1392 gdb_server.c:424 gdb_log_incoming_packet(): [riscv.cpu] {1} received packet: qXfer:features:read:target.xml:5000,1000
Debug: 684 1392 gdb_server.c:438 gdb_log_outgoing_packet(): [riscv.cpu] {1} sending packet: $<binary-data-4097-bytes>#55
Debug: 685 1393 gdb_server.c:424 gdb_log_incoming_packet(): [riscv.cpu] {1} received packet: qXfer:features:read:target.xml:6000,1000
Debug: 686 1393 gdb_server.c:438 gdb_log_outgoing_packet(): [riscv.cpu] {1} sending packet: $<binary-data-4097-bytes>#49
Debug: 687 1393 gdb_server.c:424 gdb_log_incoming_packet(): [riscv.cpu] {1} received packet: qXfer:features:read:target.xml:7000,1000
Debug: 688 1393 gdb_server.c:438 gdb_log_outgoing_packet(): [riscv.cpu] {1} sending packet: $<binary-data-4097-bytes>#dc
Debug: 689 1393 gdb_server.c:424 gdb_log_incoming_packet(): [riscv.cpu] {1} received packet: qXfer:features:read:target.xml:8000,1000
Debug: 690 1393 gdb_server.c:438 gdb_log_outgoing_packet(): [riscv.cpu] {1} sending packet: $<binary-data-4097-bytes>#14
Debug: 691 1393 gdb_server.c:424 gdb_log_incoming_packet(): [riscv.cpu] {1} received packet: qXfer:features:read:target.xml:9000,1000
Debug: 692 1393 gdb_server.c:438 gdb_log_outgoing_packet(): [riscv.cpu] {1} sending packet: $<binary-data-4097-bytes>#93
Debug: 693 1394 gdb_server.c:424 gdb_log_incoming_packet(): [riscv.cpu] {1} received packet: qXfer:features:read:target.xml:a000,1000
Debug: 694 1394 gdb_server.c:438 gdb_log_outgoing_packet(): [riscv.cpu] {1} sending packet: $<binary-data-4097-bytes>#81
Debug: 695 1394 gdb_server.c:424 gdb_log_incoming_packet(): [riscv.cpu] {1} received packet: qXfer:features:read:target.xml:b000,1000
Debug: 696 1394 gdb_server.c:438 gdb_log_outgoing_packet(): [riscv.cpu] {1} sending packet: $<binary-data-1190-bytes>#e5
Debug: 697 1401 gdb_server.c:424 gdb_log_incoming_packet(): [riscv.cpu] {1} received packet: qTStatus
Debug: 698 1401 gdb_server.c:441 gdb_log_outgoing_packet(): [riscv.cpu] {1} sending packet: $#00
Debug: 699 1401 gdb_server.c:424 gdb_log_incoming_packet(): [riscv.cpu] {1} received packet: ?
Debug: 700 1401 gdb_server.c:195 gdb_last_signal(): [riscv.cpu] Debug reason is: DBGRQ
Debug: 701 1401 gdb_server.c:441 gdb_log_outgoing_packet(): [riscv.cpu] {1} sending packet: $S02#b5
Debug: 702 1401 gdb_server.c:424 gdb_log_incoming_packet(): [riscv.cpu] {1} received packet: qXfer:threads:read::0,1000
Debug: 703 1401 gdb_server.c:438 gdb_log_outgoing_packet(): [riscv.cpu] {1} sending packet: $<binary-data-44-bytes>#02
Debug: 704 1401 gdb_server.c:424 gdb_log_incoming_packet(): [riscv.cpu] {1} received packet: Hc-1
Debug: 705 1401 gdb_server.c:441 gdb_log_outgoing_packet(): [riscv.cpu] {1} sending packet: $OK#9a
Debug: 706 1401 gdb_server.c:424 gdb_log_incoming_packet(): [riscv.cpu] {1} received packet: qC
Debug: 707 1401 gdb_server.c:441 gdb_log_outgoing_packet(): [riscv.cpu] {1} sending packet: $QC0#c4
Debug: 708 1401 gdb_server.c:424 gdb_log_incoming_packet(): [riscv.cpu] {1} received packet: qAttached
Debug: 709 1401 gdb_server.c:441 gdb_log_outgoing_packet(): [riscv.cpu] {1} sending packet: $1#31
Debug: 710 1401 gdb_server.c:424 gdb_log_incoming_packet(): [riscv.cpu] {1} received packet: qOffsets
Debug: 711 1401 gdb_server.c:441 gdb_log_outgoing_packet(): [riscv.cpu] {1} sending packet: $Text=0;Data=0;Bss=0#04
Debug: 712 1401 gdb_server.c:424 gdb_log_incoming_packet(): [riscv.cpu] {1} received packet: g
Debug: 713 1401 riscv.c:3514 riscv_get_gdb_reg_list_internal(): [riscv.cpu] reg_class=1, read=1
Debug: 714 1401 riscv_reg.c:990 riscv_reg_get(): [riscv.cpu] Reading zero from target
Debug: 715 1401 riscv-013.c:5083 riscv013_get_register(): [riscv.cpu] reading register zero
Debug: 716 1401 riscv-013.c:1567 register_read_direct(): [riscv.cpu] Reading zero
Debug: 717 1401 riscv-013.c:664 riscv013_execute_abstract_command(): [riscv.cpu] access register=0x221000 {regno=0x1000 write=arg0 transfer=enabled postexec=disabled aarpostincrement=disabled aarsize=32bit}
Debug: 718 1401 batch.c:291 riscv_batch_run_from(): [riscv.cpu] Running batch of scans [0, 3)
Debug: 719 1402 batch.c:255 log_batch(): 40b w 00221000 @17 -> + 00000000 @00; 1i
Debug: 720 1402 batch.c:199 log_dmi_decoded(): write: command=0x221000 {control=0x221000}
Debug: 721 1402 batch.c:255 log_batch(): 40b r 00000000 @16 -> + 00221000 @17; 1i
Debug: 722 1402 batch.c:255 log_batch(): 40b - 00000000 @00 -> + 02000002 @16; 1i
Debug: 723 1402 batch.c:199 log_dmi_decoded(): read: abstractcs=0x2000002 {datacount=2 progbufsize=2}
Debug: 724 1402 riscv-013.c:623 abstract_cmd_batch_check_and_clear_cmderr(): [riscv.cpu] abstractcs=0x2000002 {datacount=2 relaxedpriv=full_checks busy=ready progbufsize=2 cmderr=none}
Debug: 725 1402 batch.c:291 riscv_batch_run_from(): [riscv.cpu] Running batch of scans [0, 2)
Debug: 726 1402 batch.c:255 log_batch(): 40b r 00000000 @04 -> + 00000000 @00; 1i
Debug: 727 1402 batch.c:255 log_batch(): 40b - 00000000 @00 -> + 00000000 @04; 1i
Debug: 728 1402 batch.c:199 log_dmi_decoded(): read: 
Debug: 729 1402 riscv-013.c:1586 register_read_direct(): [riscv.cpu] zero = 0x0
Debug: 730 1402 riscv_reg.c:999 riscv_reg_get(): [riscv.cpu] Read zero: 0x0
Debug: 731 1402 riscv-013_reg.c:40 riscv013_reg_get(): [riscv.cpu] Read 0x00000000 from zero (valid=1).
Debug: 732 1402 riscv_reg.c:990 riscv_reg_get(): [riscv.cpu] Reading ra from target
Debug: 733 1402 riscv-013.c:5083 riscv013_get_register(): [riscv.cpu] reading register ra
Debug: 734 1402 riscv-013.c:1567 register_read_direct(): [riscv.cpu] Reading ra
Debug: 735 1402 riscv-013.c:664 riscv013_execute_abstract_command(): [riscv.cpu] access register=0x221001 {regno=0x1001 write=arg0 transfer=enabled postexec=disabled aarpostincrement=disabled aarsize=32bit}
Debug: 736 1402 batch.c:291 riscv_batch_run_from(): [riscv.cpu] Running batch of scans [0, 3)
Debug: 737 1402 batch.c:255 log_batch(): 40b w 00221001 @17 -> + 00000000 @00; 1i
Debug: 738 1402 batch.c:199 log_dmi_decoded(): write: command=0x221001 {control=0x221001}
Debug: 739 1402 batch.c:255 log_batch(): 40b r 00000000 @16 -> + 00221001 @17; 1i
Debug: 740 1402 batch.c:255 log_batch(): 40b - 00000000 @00 -> + 02000002 @16; 1i
Debug: 741 1402 batch.c:199 log_dmi_decoded(): read: abstractcs=0x2000002 {datacount=2 progbufsize=2}
Debug: 742 1402 riscv-013.c:623 abstract_cmd_batch_check_and_clear_cmderr(): [riscv.cpu] abstractcs=0x2000002 {datacount=2 relaxedpriv=full_checks busy=ready progbufsize=2 cmderr=none}
Debug: 743 1402 batch.c:291 riscv_batch_run_from(): [riscv.cpu] Running batch of scans [0, 2)
Debug: 744 1402 batch.c:255 log_batch(): 40b r 00000000 @04 -> + 00000000 @00; 1i
Debug: 745 1402 batch.c:255 log_batch(): 40b - 00000000 @00 -> + 101100f6 @04; 1i
Debug: 746 1402 batch.c:199 log_dmi_decoded(): read: 
Debug: 747 1402 riscv-013.c:1586 register_read_direct(): [riscv.cpu] ra = 0x101100f6
Debug: 748 1402 riscv_reg.c:999 riscv_reg_get(): [riscv.cpu] Read ra: 0x101100f6
Debug: 749 1402 riscv-013_reg.c:40 riscv013_reg_get(): [riscv.cpu] Read 0x101100f6 from ra (valid=1).
Debug: 750 1402 riscv_reg.c:990 riscv_reg_get(): [riscv.cpu] Reading sp from target
Debug: 751 1402 riscv-013.c:5083 riscv013_get_register(): [riscv.cpu] reading register sp
Debug: 752 1402 riscv-013.c:1567 register_read_direct(): [riscv.cpu] Reading sp
Debug: 753 1402 riscv-013.c:664 riscv013_execute_abstract_command(): [riscv.cpu] access register=0x221002 {regno=0x1002 write=arg0 transfer=enabled postexec=disabled aarpostincrement=disabled aarsize=32bit}
Debug: 754 1402 batch.c:291 riscv_batch_run_from(): [riscv.cpu] Running batch of scans [0, 3)
Debug: 755 1403 batch.c:255 log_batch(): 40b w 00221002 @17 -> + 00000000 @00; 1i
Debug: 756 1403 batch.c:199 log_dmi_decoded(): write: command=0x221002 {control=0x221002}
Debug: 757 1403 batch.c:255 log_batch(): 40b r 00000000 @16 -> + 00221002 @17; 1i
Debug: 758 1403 batch.c:255 log_batch(): 40b - 00000000 @00 -> + 02000002 @16; 1i
Debug: 759 1403 batch.c:199 log_dmi_decoded(): read: abstractcs=0x2000002 {datacount=2 progbufsize=2}
Debug: 760 1403 riscv-013.c:623 abstract_cmd_batch_check_and_clear_cmderr(): [riscv.cpu] abstractcs=0x2000002 {datacount=2 relaxedpriv=full_checks busy=ready progbufsize=2 cmderr=none}
Debug: 761 1403 batch.c:291 riscv_batch_run_from(): [riscv.cpu] Running batch of scans [0, 2)
Debug: 762 1403 batch.c:255 log_batch(): 40b r 00000000 @04 -> + 00000000 @00; 1i
Debug: 763 1403 batch.c:255 log_batch(): 40b - 00000000 @00 -> + 10110248 @04; 1i
Debug: 764 1403 batch.c:199 log_dmi_decoded(): read: 
Debug: 765 1403 riscv-013.c:1586 register_read_direct(): [riscv.cpu] sp = 0x10110248
Debug: 766 1403 riscv_reg.c:999 riscv_reg_get(): [riscv.cpu] Read sp: 0x10110248
Debug: 767 1403 riscv-013_reg.c:40 riscv013_reg_get(): [riscv.cpu] Read 0x10110248 from sp (valid=1).
Debug: 768 1403 riscv_reg.c:990 riscv_reg_get(): [riscv.cpu] Reading gp from target
Debug: 769 1403 riscv-013.c:5083 riscv013_get_register(): [riscv.cpu] reading register gp
Debug: 770 1403 riscv-013.c:1567 register_read_direct(): [riscv.cpu] Reading gp
Debug: 771 1403 riscv-013.c:664 riscv013_execute_abstract_command(): [riscv.cpu] access register=0x221003 {regno=0x1003 write=arg0 transfer=enabled postexec=disabled aarpostincrement=disabled aarsize=32bit}
Debug: 772 1403 batch.c:291 riscv_batch_run_from(): [riscv.cpu] Running batch of scans [0, 3)
Debug: 773 1403 batch.c:255 log_batch(): 40b w 00221003 @17 -> + 00000000 @00; 1i
Debug: 774 1403 batch.c:199 log_dmi_decoded(): write: command=0x221003 {control=0x221003}
Debug: 775 1403 batch.c:255 log_batch(): 40b r 00000000 @16 -> + 00221003 @17; 1i
Debug: 776 1403 batch.c:255 log_batch(): 40b - 00000000 @00 -> + 02000002 @16; 1i
Debug: 777 1403 batch.c:199 log_dmi_decoded(): read: abstractcs=0x2000002 {datacount=2 progbufsize=2}
Debug: 778 1403 riscv-013.c:623 abstract_cmd_batch_check_and_clear_cmderr(): [riscv.cpu] abstractcs=0x2000002 {datacount=2 relaxedpriv=full_checks busy=ready progbufsize=2 cmderr=none}
Debug: 779 1403 batch.c:291 riscv_batch_run_from(): [riscv.cpu] Running batch of scans [0, 2)
Debug: 780 1403 batch.c:255 log_batch(): 40b r 00000000 @04 -> + 00000000 @00; 1i
Debug: 781 1403 batch.c:255 log_batch(): 40b - 00000000 @00 -> + 10110a7c @04; 1i
Debug: 782 1403 batch.c:199 log_dmi_decoded(): read: 
Debug: 783 1403 riscv-013.c:1586 register_read_direct(): [riscv.cpu] gp = 0x10110a7c
Debug: 784 1403 riscv_reg.c:999 riscv_reg_get(): [riscv.cpu] Read gp: 0x10110a7c
Debug: 785 1403 riscv-013_reg.c:40 riscv013_reg_get(): [riscv.cpu] Read 0x10110a7c from gp (valid=1).
Debug: 786 1403 riscv_reg.c:990 riscv_reg_get(): [riscv.cpu] Reading tp from target
Debug: 787 1403 riscv-013.c:5083 riscv013_get_register(): [riscv.cpu] reading register tp
Debug: 788 1403 riscv-013.c:1567 register_read_direct(): [riscv.cpu] Reading tp
Debug: 789 1403 riscv-013.c:664 riscv013_execute_abstract_command(): [riscv.cpu] access register=0x221004 {regno=0x1004 write=arg0 transfer=enabled postexec=disabled aarpostincrement=disabled aarsize=32bit}
Debug: 790 1403 batch.c:291 riscv_batch_run_from(): [riscv.cpu] Running batch of scans [0, 3)
Debug: 791 1403 batch.c:255 log_batch(): 40b w 00221004 @17 -> + 00000000 @00; 1i
Debug: 792 1403 batch.c:199 log_dmi_decoded(): write: command=0x221004 {control=0x221004}
Debug: 793 1403 batch.c:255 log_batch(): 40b r 00000000 @16 -> + 00221004 @17; 1i
Debug: 794 1403 batch.c:255 log_batch(): 40b - 00000000 @00 -> + 02000002 @16; 1i
Debug: 795 1403 batch.c:199 log_dmi_decoded(): read: abstractcs=0x2000002 {datacount=2 progbufsize=2}
Debug: 796 1403 riscv-013.c:623 abstract_cmd_batch_check_and_clear_cmderr(): [riscv.cpu] abstractcs=0x2000002 {datacount=2 relaxedpriv=full_checks busy=ready progbufsize=2 cmderr=none}
Debug: 797 1403 batch.c:291 riscv_batch_run_from(): [riscv.cpu] Running batch of scans [0, 2)
Debug: 798 1404 batch.c:255 log_batch(): 40b r 00000000 @04 -> + 00000000 @00; 1i
Debug: 799 1404 batch.c:255 log_batch(): 40b - 00000000 @00 -> + 00000000 @04; 1i
Debug: 800 1404 batch.c:199 log_dmi_decoded(): read: 
Debug: 801 1404 riscv-013.c:1586 register_read_direct(): [riscv.cpu] tp = 0x0
Debug: 802 1404 riscv_reg.c:999 riscv_reg_get(): [riscv.cpu] Read tp: 0x0
Debug: 803 1404 riscv-013_reg.c:40 riscv013_reg_get(): [riscv.cpu] Read 0x00000000 from tp (valid=1).
Debug: 804 1404 riscv_reg.c:990 riscv_reg_get(): [riscv.cpu] Reading t0 from target
Debug: 805 1404 riscv-013.c:5083 riscv013_get_register(): [riscv.cpu] reading register t0
Debug: 806 1404 riscv-013.c:1567 register_read_direct(): [riscv.cpu] Reading t0
Debug: 807 1404 riscv-013.c:664 riscv013_execute_abstract_command(): [riscv.cpu] access register=0x221005 {regno=0x1005 write=arg0 transfer=enabled postexec=disabled aarpostincrement=disabled aarsize=32bit}
Debug: 808 1404 batch.c:291 riscv_batch_run_from(): [riscv.cpu] Running batch of scans [0, 3)
Debug: 809 1404 batch.c:255 log_batch(): 40b w 00221005 @17 -> + 00000000 @00; 1i
Debug: 810 1404 batch.c:199 log_dmi_decoded(): write: command=0x221005 {control=0x221005}
Debug: 811 1404 batch.c:255 log_batch(): 40b r 00000000 @16 -> + 00221005 @17; 1i
Debug: 812 1404 batch.c:255 log_batch(): 40b - 00000000 @00 -> + 02000002 @16; 1i
Debug: 813 1404 batch.c:199 log_dmi_decoded(): read: abstractcs=0x2000002 {datacount=2 progbufsize=2}
Debug: 814 1404 riscv-013.c:623 abstract_cmd_batch_check_and_clear_cmderr(): [riscv.cpu] abstractcs=0x2000002 {datacount=2 relaxedpriv=full_checks busy=ready progbufsize=2 cmderr=none}
Debug: 815 1404 batch.c:291 riscv_batch_run_from(): [riscv.cpu] Running batch of scans [0, 2)
Debug: 816 1404 batch.c:255 log_batch(): 40b r 00000000 @04 -> + 00000000 @00; 1i
Debug: 817 1404 batch.c:255 log_batch(): 40b - 00000000 @00 -> + 1011027c @04; 1i
Debug: 818 1404 batch.c:199 log_dmi_decoded(): read: 
Debug: 819 1404 riscv-013.c:1586 register_read_direct(): [riscv.cpu] t0 = 0x1011027c
Debug: 820 1404 riscv_reg.c:999 riscv_reg_get(): [riscv.cpu] Read t0: 0x1011027c
Debug: 821 1404 riscv-013_reg.c:40 riscv013_reg_get(): [riscv.cpu] Read 0x1011027c from t0 (valid=1).
Debug: 822 1404 riscv_reg.c:990 riscv_reg_get(): [riscv.cpu] Reading t1 from target
Debug: 823 1404 riscv-013.c:5083 riscv013_get_register(): [riscv.cpu] reading register t1
Debug: 824 1404 riscv-013.c:1567 register_read_direct(): [riscv.cpu] Reading t1
Debug: 825 1404 riscv-013.c:664 riscv013_execute_abstract_command(): [riscv.cpu] access register=0x221006 {regno=0x1006 write=arg0 transfer=enabled postexec=disabled aarpostincrement=disabled aarsize=32bit}
Debug: 826 1404 batch.c:291 riscv_batch_run_from(): [riscv.cpu] Running batch of scans [0, 3)
Debug: 827 1404 batch.c:255 log_batch(): 40b w 00221006 @17 -> + 00000000 @00; 1i
Debug: 828 1404 batch.c:199 log_dmi_decoded(): write: command=0x221006 {control=0x221006}
Debug: 829 1404 batch.c:255 log_batch(): 40b r 00000000 @16 -> + 00221006 @17; 1i
Debug: 830 1404 batch.c:255 log_batch(): 40b - 00000000 @00 -> + 02000002 @16; 1i
Debug: 831 1404 batch.c:199 log_dmi_decoded(): read: abstractcs=0x2000002 {datacount=2 progbufsize=2}
Debug: 832 1404 riscv-013.c:623 abstract_cmd_batch_check_and_clear_cmderr(): [riscv.cpu] abstractcs=0x2000002 {datacount=2 relaxedpriv=full_checks busy=ready progbufsize=2 cmderr=none}
Debug: 833 1404 batch.c:291 riscv_batch_run_from(): [riscv.cpu] Running batch of scans [0, 2)
Debug: 834 1404 batch.c:255 log_batch(): 40b r 00000000 @04 -> + 00000000 @00; 1i
Debug: 835 1404 batch.c:255 log_batch(): 40b - 00000000 @00 -> + 1011027c @04; 1i
Debug: 836 1404 batch.c:199 log_dmi_decoded(): read: 
Debug: 837 1404 riscv-013.c:1586 register_read_direct(): [riscv.cpu] t1 = 0x1011027c
Debug: 838 1404 riscv_reg.c:999 riscv_reg_get(): [riscv.cpu] Read t1: 0x1011027c
Debug: 839 1404 riscv-013_reg.c:40 riscv013_reg_get(): [riscv.cpu] Read 0x1011027c from t1 (valid=1).
Debug: 840 1404 riscv_reg.c:990 riscv_reg_get(): [riscv.cpu] Reading t2 from target
Debug: 841 1404 riscv-013.c:5083 riscv013_get_register(): [riscv.cpu] reading register t2
Debug: 842 1404 riscv-013.c:1567 register_read_direct(): [riscv.cpu] Reading t2
Debug: 843 1404 riscv-013.c:664 riscv013_execute_abstract_command(): [riscv.cpu] access register=0x221007 {regno=0x1007 write=arg0 transfer=enabled postexec=disabled aarpostincrement=disabled aarsize=32bit}
Debug: 844 1404 batch.c:291 riscv_batch_run_from(): [riscv.cpu] Running batch of scans [0, 3)
Debug: 845 1405 batch.c:255 log_batch(): 40b w 00221007 @17 -> + 00000000 @00; 1i
Debug: 846 1405 batch.c:199 log_dmi_decoded(): write: command=0x221007 {control=0x221007}
Debug: 847 1405 batch.c:255 log_batch(): 40b r 00000000 @16 -> + 00221007 @17; 1i
Debug: 848 1405 batch.c:255 log_batch(): 40b - 00000000 @00 -> + 02000002 @16; 1i
Debug: 849 1405 batch.c:199 log_dmi_decoded(): read: abstractcs=0x2000002 {datacount=2 progbufsize=2}
Debug: 850 1405 riscv-013.c:623 abstract_cmd_batch_check_and_clear_cmderr(): [riscv.cpu] abstractcs=0x2000002 {datacount=2 relaxedpriv=full_checks busy=ready progbufsize=2 cmderr=none}
Debug: 851 1405 batch.c:291 riscv_batch_run_from(): [riscv.cpu] Running batch of scans [0, 2)
Debug: 852 1405 batch.c:255 log_batch(): 40b r 00000000 @04 -> + 00000000 @00; 1i
Debug: 853 1405 batch.c:255 log_batch(): 40b - 00000000 @00 -> + 00100000 @04; 1i
Debug: 854 1405 batch.c:199 log_dmi_decoded(): read: 
Debug: 855 1405 riscv-013.c:1586 register_read_direct(): [riscv.cpu] t2 = 0x100000
Debug: 856 1405 riscv_reg.c:999 riscv_reg_get(): [riscv.cpu] Read t2: 0x100000
Debug: 857 1405 riscv-013_reg.c:40 riscv013_reg_get(): [riscv.cpu] Read 0x00100000 from t2 (valid=1).
Debug: 858 1405 riscv_reg.c:990 riscv_reg_get(): [riscv.cpu] Reading fp from target
Debug: 859 1405 riscv-013.c:5083 riscv013_get_register(): [riscv.cpu] reading register fp
Debug: 860 1405 riscv-013.c:1567 register_read_direct(): [riscv.cpu] Reading fp
Debug: 861 1405 riscv-013.c:664 riscv013_execute_abstract_command(): [riscv.cpu] access register=0x221008 {regno=0x1008 write=arg0 transfer=enabled postexec=disabled aarpostincrement=disabled aarsize=32bit}
Debug: 862 1405 batch.c:291 riscv_batch_run_from(): [riscv.cpu] Running batch of scans [0, 3)
Debug: 863 1405 batch.c:255 log_batch(): 40b w 00221008 @17 -> + 00000000 @00; 1i
Debug: 864 1405 batch.c:199 log_dmi_decoded(): write: command=0x221008 {control=0x221008}
Debug: 865 1405 batch.c:255 log_batch(): 40b r 00000000 @16 -> + 00221008 @17; 1i
Debug: 866 1405 batch.c:255 log_batch(): 40b - 00000000 @00 -> + 02000002 @16; 1i
Debug: 867 1405 batch.c:199 log_dmi_decoded(): read: abstractcs=0x2000002 {datacount=2 progbufsize=2}
Debug: 868 1405 riscv-013.c:623 abstract_cmd_batch_check_and_clear_cmderr(): [riscv.cpu] abstractcs=0x2000002 {datacount=2 relaxedpriv=full_checks busy=ready progbufsize=2 cmderr=none}
Debug: 869 1405 batch.c:291 riscv_batch_run_from(): [riscv.cpu] Running batch of scans [0, 2)
Debug: 870 1405 batch.c:255 log_batch(): 40b r 00000000 @04 -> + 00000000 @00; 1i
Debug: 871 1405 batch.c:255 log_batch(): 40b - 00000000 @00 -> + 10110278 @04; 1i
Debug: 872 1405 batch.c:199 log_dmi_decoded(): read: 
Debug: 873 1405 riscv-013.c:1586 register_read_direct(): [riscv.cpu] fp = 0x10110278
Debug: 874 1405 riscv_reg.c:999 riscv_reg_get(): [riscv.cpu] Read fp: 0x10110278
Debug: 875 1405 riscv-013_reg.c:40 riscv013_reg_get(): [riscv.cpu] Read 0x10110278 from fp (valid=1).
Debug: 876 1405 riscv_reg.c:990 riscv_reg_get(): [riscv.cpu] Reading s1 from target
Debug: 877 1405 riscv-013.c:5083 riscv013_get_register(): [riscv.cpu] reading register s1
Debug: 878 1405 riscv-013.c:1567 register_read_direct(): [riscv.cpu] Reading s1
Debug: 879 1405 riscv-013.c:664 riscv013_execute_abstract_command(): [riscv.cpu] access register=0x221009 {regno=0x1009 write=arg0 transfer=enabled postexec=disabled aarpostincrement=disabled aarsize=32bit}
Debug: 880 1405 batch.c:291 riscv_batch_run_from(): [riscv.cpu] Running batch of scans [0, 3)
Debug: 881 1405 batch.c:255 log_batch(): 40b w 00221009 @17 -> + 00000000 @00; 1i
Debug: 882 1405 batch.c:199 log_dmi_decoded(): write: command=0x221009 {control=0x221009}
Debug: 883 1405 batch.c:255 log_batch(): 40b r 00000000 @16 -> + 00221009 @17; 1i
Debug: 884 1405 batch.c:255 log_batch(): 40b - 00000000 @00 -> + 02000002 @16; 1i
Debug: 885 1405 batch.c:199 log_dmi_decoded(): read: abstractcs=0x2000002 {datacount=2 progbufsize=2}
Debug: 886 1405 riscv-013.c:623 abstract_cmd_batch_check_and_clear_cmderr(): [riscv.cpu] abstractcs=0x2000002 {datacount=2 relaxedpriv=full_checks busy=ready progbufsize=2 cmderr=none}
Debug: 887 1405 batch.c:291 riscv_batch_run_from(): [riscv.cpu] Running batch of scans [0, 2)
Debug: 888 1406 batch.c:255 log_batch(): 40b r 00000000 @04 -> + 00000000 @00; 1i
Debug: 889 1406 batch.c:255 log_batch(): 40b - 00000000 @00 -> + 00000000 @04; 1i
Debug: 890 1406 batch.c:199 log_dmi_decoded(): read: 
Debug: 891 1406 riscv-013.c:1586 register_read_direct(): [riscv.cpu] s1 = 0x0
Debug: 892 1406 riscv_reg.c:999 riscv_reg_get(): [riscv.cpu] Read s1: 0x0
Debug: 893 1406 riscv-013_reg.c:40 riscv013_reg_get(): [riscv.cpu] Read 0x00000000 from s1 (valid=1).
Debug: 894 1406 riscv_reg.c:990 riscv_reg_get(): [riscv.cpu] Reading a0 from target
Debug: 895 1406 riscv-013.c:5083 riscv013_get_register(): [riscv.cpu] reading register a0
Debug: 896 1406 riscv-013.c:1567 register_read_direct(): [riscv.cpu] Reading a0
Debug: 897 1406 riscv-013.c:664 riscv013_execute_abstract_command(): [riscv.cpu] access register=0x22100a {regno=0x100a write=arg0 transfer=enabled postexec=disabled aarpostincrement=disabled aarsize=32bit}
Debug: 898 1406 batch.c:291 riscv_batch_run_from(): [riscv.cpu] Running batch of scans [0, 3)
Debug: 899 1406 batch.c:255 log_batch(): 40b w 0022100a @17 -> + 00000000 @00; 1i
Debug: 900 1406 batch.c:199 log_dmi_decoded(): write: command=0x22100a {control=0x22100a}
Debug: 901 1406 batch.c:255 log_batch(): 40b r 00000000 @16 -> + 0022100a @17; 1i
Debug: 902 1406 batch.c:255 log_batch(): 40b - 00000000 @00 -> + 02000002 @16; 1i
Debug: 903 1406 batch.c:199 log_dmi_decoded(): read: abstractcs=0x2000002 {datacount=2 progbufsize=2}
Debug: 904 1406 riscv-013.c:623 abstract_cmd_batch_check_and_clear_cmderr(): [riscv.cpu] abstractcs=0x2000002 {datacount=2 relaxedpriv=full_checks busy=ready progbufsize=2 cmderr=none}
Debug: 905 1406 batch.c:291 riscv_batch_run_from(): [riscv.cpu] Running batch of scans [0, 2)
Debug: 906 1406 batch.c:255 log_batch(): 40b r 00000000 @04 -> + 00000000 @00; 1i
Debug: 907 1406 batch.c:255 log_batch(): 40b - 00000000 @00 -> + 0000000a @04; 1i
Debug: 908 1406 batch.c:199 log_dmi_decoded(): read: 
Debug: 909 1406 riscv-013.c:1586 register_read_direct(): [riscv.cpu] a0 = 0xa
Debug: 910 1406 riscv_reg.c:999 riscv_reg_get(): [riscv.cpu] Read a0: 0xa
Debug: 911 1406 riscv-013_reg.c:40 riscv013_reg_get(): [riscv.cpu] Read 0x0000000a from a0 (valid=1).
Debug: 912 1406 riscv_reg.c:990 riscv_reg_get(): [riscv.cpu] Reading a1 from target
Debug: 913 1406 riscv-013.c:5083 riscv013_get_register(): [riscv.cpu] reading register a1
Debug: 914 1406 riscv-013.c:1567 register_read_direct(): [riscv.cpu] Reading a1
Debug: 915 1406 riscv-013.c:664 riscv013_execute_abstract_command(): [riscv.cpu] access register=0x22100b {regno=0x100b write=arg0 transfer=enabled postexec=disabled aarpostincrement=disabled aarsize=32bit}
Debug: 916 1406 batch.c:291 riscv_batch_run_from(): [riscv.cpu] Running batch of scans [0, 3)
Debug: 917 1406 batch.c:255 log_batch(): 40b w 0022100b @17 -> + 00000000 @00; 1i
Debug: 918 1406 batch.c:199 log_dmi_decoded(): write: command=0x22100b {control=0x22100b}
Debug: 919 1406 batch.c:255 log_batch(): 40b r 00000000 @16 -> + 0022100b @17; 1i
Debug: 920 1406 batch.c:255 log_batch(): 40b - 00000000 @00 -> + 02000002 @16; 1i
Debug: 921 1406 batch.c:199 log_dmi_decoded(): read: abstractcs=0x2000002 {datacount=2 progbufsize=2}
Debug: 922 1406 riscv-013.c:623 abstract_cmd_batch_check_and_clear_cmderr(): [riscv.cpu] abstractcs=0x2000002 {datacount=2 relaxedpriv=full_checks busy=ready progbufsize=2 cmderr=none}
Debug: 923 1406 batch.c:291 riscv_batch_run_from(): [riscv.cpu] Running batch of scans [0, 2)
Debug: 924 1406 batch.c:255 log_batch(): 40b r 00000000 @04 -> + 00000000 @00; 1i
Debug: 925 1406 batch.c:255 log_batch(): 40b - 00000000 @00 -> + 00000014 @04; 1i
Debug: 926 1406 batch.c:199 log_dmi_decoded(): read: 
Debug: 927 1406 riscv-013.c:1586 register_read_direct(): [riscv.cpu] a1 = 0x14
Debug: 928 1406 riscv_reg.c:999 riscv_reg_get(): [riscv.cpu] Read a1: 0x14
Debug: 929 1406 riscv-013_reg.c:40 riscv013_reg_get(): [riscv.cpu] Read 0x00000014 from a1 (valid=1).
Debug: 930 1406 riscv_reg.c:990 riscv_reg_get(): [riscv.cpu] Reading a2 from target
Debug: 931 1406 riscv-013.c:5083 riscv013_get_register(): [riscv.cpu] reading register a2
Debug: 932 1406 riscv-013.c:1567 register_read_direct(): [riscv.cpu] Reading a2
Debug: 933 1406 riscv-013.c:664 riscv013_execute_abstract_command(): [riscv.cpu] access register=0x22100c {regno=0x100c write=arg0 transfer=enabled postexec=disabled aarpostincrement=disabled aarsize=32bit}
Debug: 934 1406 batch.c:291 riscv_batch_run_from(): [riscv.cpu] Running batch of scans [0, 3)
Debug: 935 1407 batch.c:255 log_batch(): 40b w 0022100c @17 -> + 00000000 @00; 1i
Debug: 936 1407 batch.c:199 log_dmi_decoded(): write: command=0x22100c {control=0x22100c}
Debug: 937 1407 batch.c:255 log_batch(): 40b r 00000000 @16 -> + 0022100c @17; 1i
Debug: 938 1407 batch.c:255 log_batch(): 40b - 00000000 @00 -> + 02000002 @16; 1i
Debug: 939 1407 batch.c:199 log_dmi_decoded(): read: abstractcs=0x2000002 {datacount=2 progbufsize=2}
Debug: 940 1407 riscv-013.c:623 abstract_cmd_batch_check_and_clear_cmderr(): [riscv.cpu] abstractcs=0x2000002 {datacount=2 relaxedpriv=full_checks busy=ready progbufsize=2 cmderr=none}
Debug: 941 1407 batch.c:291 riscv_batch_run_from(): [riscv.cpu] Running batch of scans [0, 2)
Debug: 942 1407 batch.c:255 log_batch(): 40b r 00000000 @04 -> + 00000000 @00; 1i
Debug: 943 1407 batch.c:255 log_batch(): 40b - 00000000 @00 -> + 00000000 @04; 1i
Debug: 944 1407 batch.c:199 log_dmi_decoded(): read: 
Debug: 945 1407 riscv-013.c:1586 register_read_direct(): [riscv.cpu] a2 = 0x0
Debug: 946 1407 riscv_reg.c:999 riscv_reg_get(): [riscv.cpu] Read a2: 0x0
Debug: 947 1407 riscv-013_reg.c:40 riscv013_reg_get(): [riscv.cpu] Read 0x00000000 from a2 (valid=1).
Debug: 948 1407 riscv_reg.c:990 riscv_reg_get(): [riscv.cpu] Reading a3 from target
Debug: 949 1407 riscv-013.c:5083 riscv013_get_register(): [riscv.cpu] reading register a3
Debug: 950 1407 riscv-013.c:1567 register_read_direct(): [riscv.cpu] Reading a3
Debug: 951 1407 riscv-013.c:664 riscv013_execute_abstract_command(): [riscv.cpu] access register=0x22100d {regno=0x100d write=arg0 transfer=enabled postexec=disabled aarpostincrement=disabled aarsize=32bit}
Debug: 952 1407 batch.c:291 riscv_batch_run_from(): [riscv.cpu] Running batch of scans [0, 3)
Debug: 953 1407 batch.c:255 log_batch(): 40b w 0022100d @17 -> + 00000000 @00; 1i
Debug: 954 1407 batch.c:199 log_dmi_decoded(): write: command=0x22100d {control=0x22100d}
Debug: 955 1407 batch.c:255 log_batch(): 40b r 00000000 @16 -> + 0022100d @17; 1i
Debug: 956 1407 batch.c:255 log_batch(): 40b - 00000000 @00 -> + 02000002 @16; 1i
Debug: 957 1407 batch.c:199 log_dmi_decoded(): read: abstractcs=0x2000002 {datacount=2 progbufsize=2}
Debug: 958 1407 riscv-013.c:623 abstract_cmd_batch_check_and_clear_cmderr(): [riscv.cpu] abstractcs=0x2000002 {datacount=2 relaxedpriv=full_checks busy=ready progbufsize=2 cmderr=none}
Debug: 959 1407 batch.c:291 riscv_batch_run_from(): [riscv.cpu] Running batch of scans [0, 2)
Debug: 960 1407 batch.c:255 log_batch(): 40b r 00000000 @04 -> + 00000000 @00; 1i
Debug: 961 1407 batch.c:255 log_batch(): 40b - 00000000 @00 -> + 00000000 @04; 1i
Debug: 962 1407 batch.c:199 log_dmi_decoded(): read: 
Debug: 963 1407 riscv-013.c:1586 register_read_direct(): [riscv.cpu] a3 = 0x0
Debug: 964 1407 riscv_reg.c:999 riscv_reg_get(): [riscv.cpu] Read a3: 0x0
Debug: 965 1407 riscv-013_reg.c:40 riscv013_reg_get(): [riscv.cpu] Read 0x00000000 from a3 (valid=1).
Debug: 966 1407 riscv_reg.c:990 riscv_reg_get(): [riscv.cpu] Reading a4 from target
Debug: 967 1407 riscv-013.c:5083 riscv013_get_register(): [riscv.cpu] reading register a4
Debug: 968 1407 riscv-013.c:1567 register_read_direct(): [riscv.cpu] Reading a4
Debug: 969 1407 riscv-013.c:664 riscv013_execute_abstract_command(): [riscv.cpu] access register=0x22100e {regno=0x100e write=arg0 transfer=enabled postexec=disabled aarpostincrement=disabled aarsize=32bit}
Debug: 970 1407 batch.c:291 riscv_batch_run_from(): [riscv.cpu] Running batch of scans [0, 3)
Debug: 971 1407 batch.c:255 log_batch(): 40b w 0022100e @17 -> + 00000000 @00; 1i
Debug: 972 1407 batch.c:199 log_dmi_decoded(): write: command=0x22100e {control=0x22100e}
Debug: 973 1407 batch.c:255 log_batch(): 40b r 00000000 @16 -> + 0022100e @17; 1i
Debug: 974 1407 batch.c:255 log_batch(): 40b - 00000000 @00 -> + 02000002 @16; 1i
Debug: 975 1407 batch.c:199 log_dmi_decoded(): read: abstractcs=0x2000002 {datacount=2 progbufsize=2}
Debug: 976 1407 riscv-013.c:623 abstract_cmd_batch_check_and_clear_cmderr(): [riscv.cpu] abstractcs=0x2000002 {datacount=2 relaxedpriv=full_checks busy=ready progbufsize=2 cmderr=none}
Debug: 977 1407 batch.c:291 riscv_batch_run_from(): [riscv.cpu] Running batch of scans [0, 2)
Debug: 978 1408 batch.c:255 log_batch(): 40b r 00000000 @04 -> + 00000000 @00; 1i
Debug: 979 1408 batch.c:255 log_batch(): 40b - 00000000 @00 -> + 00000003 @04; 1i
Debug: 980 1408 batch.c:199 log_dmi_decoded(): read: 
Debug: 981 1408 riscv-013.c:1586 register_read_direct(): [riscv.cpu] a4 = 0x3
Debug: 982 1408 riscv_reg.c:999 riscv_reg_get(): [riscv.cpu] Read a4: 0x3
Debug: 983 1408 riscv-013_reg.c:40 riscv013_reg_get(): [riscv.cpu] Read 0x00000003 from a4 (valid=1).
Debug: 984 1408 riscv_reg.c:990 riscv_reg_get(): [riscv.cpu] Reading a5 from target
Debug: 985 1408 riscv-013.c:5083 riscv013_get_register(): [riscv.cpu] reading register a5
Debug: 986 1408 riscv-013.c:1567 register_read_direct(): [riscv.cpu] Reading a5
Debug: 987 1408 riscv-013.c:664 riscv013_execute_abstract_command(): [riscv.cpu] access register=0x22100f {regno=0x100f write=arg0 transfer=enabled postexec=disabled aarpostincrement=disabled aarsize=32bit}
Debug: 988 1408 batch.c:291 riscv_batch_run_from(): [riscv.cpu] Running batch of scans [0, 3)
Debug: 989 1408 batch.c:255 log_batch(): 40b w 0022100f @17 -> + 00000000 @00; 1i
Debug: 990 1408 batch.c:199 log_dmi_decoded(): write: command=0x22100f {control=0x22100f}
Debug: 991 1408 batch.c:255 log_batch(): 40b r 00000000 @16 -> + 0022100f @17; 1i
Debug: 992 1408 batch.c:255 log_batch(): 40b - 00000000 @00 -> + 02000002 @16; 1i
Debug: 993 1408 batch.c:199 log_dmi_decoded(): read: abstractcs=0x2000002 {datacount=2 progbufsize=2}
Debug: 994 1408 riscv-013.c:623 abstract_cmd_batch_check_and_clear_cmderr(): [riscv.cpu] abstractcs=0x2000002 {datacount=2 relaxedpriv=full_checks busy=ready progbufsize=2 cmderr=none}
Debug: 995 1408 batch.c:291 riscv_batch_run_from(): [riscv.cpu] Running batch of scans [0, 2)
Debug: 996 1408 batch.c:255 log_batch(): 40b r 00000000 @04 -> + 00000000 @00; 1i
Debug: 997 1408 batch.c:255 log_batch(): 40b - 00000000 @00 -> + 00000002 @04; 1i
Debug: 998 1408 batch.c:199 log_dmi_decoded(): read: 
Debug: 999 1408 riscv-013.c:1586 register_read_direct(): [riscv.cpu] a5 = 0x2
Debug: 1000 1408 riscv_reg.c:999 riscv_reg_get(): [riscv.cpu] Read a5: 0x2
Debug: 1001 1408 riscv-013_reg.c:40 riscv013_reg_get(): [riscv.cpu] Read 0x00000002 from a5 (valid=1).
Debug: 1002 1408 riscv_reg.c:990 riscv_reg_get(): [riscv.cpu] Reading a6 from target
Debug: 1003 1408 riscv-013.c:5083 riscv013_get_register(): [riscv.cpu] reading register a6
Debug: 1004 1408 riscv-013.c:1567 register_read_direct(): [riscv.cpu] Reading a6
Debug: 1005 1408 riscv-013.c:664 riscv013_execute_abstract_command(): [riscv.cpu] access register=0x221010 {regno=0x1010 write=arg0 transfer=enabled postexec=disabled aarpostincrement=disabled aarsize=32bit}
Debug: 1006 1408 batch.c:291 riscv_batch_run_from(): [riscv.cpu] Running batch of scans [0, 3)
Debug: 1007 1408 batch.c:255 log_batch(): 40b w 00221010 @17 -> + 00000000 @00; 1i
Debug: 1008 1408 batch.c:199 log_dmi_decoded(): write: command=0x221010 {control=0x221010}
Debug: 1009 1408 batch.c:255 log_batch(): 40b r 00000000 @16 -> + 00221010 @17; 1i
Debug: 1010 1408 batch.c:255 log_batch(): 40b - 00000000 @00 -> + 02000002 @16; 1i
Debug: 1011 1408 batch.c:199 log_dmi_decoded(): read: abstractcs=0x2000002 {datacount=2 progbufsize=2}
Debug: 1012 1408 riscv-013.c:623 abstract_cmd_batch_check_and_clear_cmderr(): [riscv.cpu] abstractcs=0x2000002 {datacount=2 relaxedpriv=full_checks busy=ready progbufsize=2 cmderr=none}
Debug: 1013 1408 batch.c:291 riscv_batch_run_from(): [riscv.cpu] Running batch of scans [0, 2)
Debug: 1014 1408 batch.c:255 log_batch(): 40b r 00000000 @04 -> + 00000000 @00; 1i
Debug: 1015 1408 batch.c:255 log_batch(): 40b - 00000000 @00 -> + 00000000 @04; 1i
Debug: 1016 1408 batch.c:199 log_dmi_decoded(): read: 
Debug: 1017 1408 riscv-013.c:1586 register_read_direct(): [riscv.cpu] a6 = 0x0
Debug: 1018 1408 riscv_reg.c:999 riscv_reg_get(): [riscv.cpu] Read a6: 0x0
Debug: 1019 1408 riscv-013_reg.c:40 riscv013_reg_get(): [riscv.cpu] Read 0x00000000 from a6 (valid=1).
Debug: 1020 1408 riscv_reg.c:990 riscv_reg_get(): [riscv.cpu] Reading a7 from target
Debug: 1021 1408 riscv-013.c:5083 riscv013_get_register(): [riscv.cpu] reading register a7
Debug: 1022 1408 riscv-013.c:1567 register_read_direct(): [riscv.cpu] Reading a7
Debug: 1023 1408 riscv-013.c:664 riscv013_execute_abstract_command(): [riscv.cpu] access register=0x221011 {regno=0x1011 write=arg0 transfer=enabled postexec=disabled aarpostincrement=disabled aarsize=32bit}
Debug: 1024 1408 batch.c:291 riscv_batch_run_from(): [riscv.cpu] Running batch of scans [0, 3)
Debug: 1025 1408 batch.c:255 log_batch(): 40b w 00221011 @17 -> + 00000000 @00; 1i
Debug: 1026 1408 batch.c:199 log_dmi_decoded(): write: command=0x221011 {control=0x221011}
Debug: 1027 1408 batch.c:255 log_batch(): 40b r 00000000 @16 -> + 00221011 @17; 1i
Debug: 1028 1408 batch.c:255 log_batch(): 40b - 00000000 @00 -> + 02000002 @16; 1i
Debug: 1029 1408 batch.c:199 log_dmi_decoded(): read: abstractcs=0x2000002 {datacount=2 progbufsize=2}
Debug: 1030 1409 riscv-013.c:623 abstract_cmd_batch_check_and_clear_cmderr(): [riscv.cpu] abstractcs=0x2000002 {datacount=2 relaxedpriv=full_checks busy=ready progbufsize=2 cmderr=none}
Debug: 1031 1409 batch.c:291 riscv_batch_run_from(): [riscv.cpu] Running batch of scans [0, 2)
Debug: 1032 1409 batch.c:255 log_batch(): 40b r 00000000 @04 -> + 00000000 @00; 1i
Debug: 1033 1409 batch.c:255 log_batch(): 40b - 00000000 @00 -> + 00000000 @04; 1i
Debug: 1034 1409 batch.c:199 log_dmi_decoded(): read: 
Debug: 1035 1409 riscv-013.c:1586 register_read_direct(): [riscv.cpu] a7 = 0x0
Debug: 1036 1409 riscv_reg.c:999 riscv_reg_get(): [riscv.cpu] Read a7: 0x0
Debug: 1037 1409 riscv-013_reg.c:40 riscv013_reg_get(): [riscv.cpu] Read 0x00000000 from a7 (valid=1).
Debug: 1038 1409 riscv_reg.c:990 riscv_reg_get(): [riscv.cpu] Reading s2 from target
Debug: 1039 1409 riscv-013.c:5083 riscv013_get_register(): [riscv.cpu] reading register s2
Debug: 1040 1409 riscv-013.c:1567 register_read_direct(): [riscv.cpu] Reading s2
Debug: 1041 1409 riscv-013.c:664 riscv013_execute_abstract_command(): [riscv.cpu] access register=0x221012 {regno=0x1012 write=arg0 transfer=enabled postexec=disabled aarpostincrement=disabled aarsize=32bit}
Debug: 1042 1409 batch.c:291 riscv_batch_run_from(): [riscv.cpu] Running batch of scans [0, 3)
Debug: 1043 1409 batch.c:255 log_batch(): 40b w 00221012 @17 -> + 00000000 @00; 1i
Debug: 1044 1409 batch.c:199 log_dmi_decoded(): write: command=0x221012 {control=0x221012}
Debug: 1045 1409 batch.c:255 log_batch(): 40b r 00000000 @16 -> + 00221012 @17; 1i
Debug: 1046 1409 batch.c:255 log_batch(): 40b - 00000000 @00 -> + 02000002 @16; 1i
Debug: 1047 1409 batch.c:199 log_dmi_decoded(): read: abstractcs=0x2000002 {datacount=2 progbufsize=2}
Debug: 1048 1409 riscv-013.c:623 abstract_cmd_batch_check_and_clear_cmderr(): [riscv.cpu] abstractcs=0x2000002 {datacount=2 relaxedpriv=full_checks busy=ready progbufsize=2 cmderr=none}
Debug: 1049 1409 batch.c:291 riscv_batch_run_from(): [riscv.cpu] Running batch of scans [0, 2)
Debug: 1050 1409 batch.c:255 log_batch(): 40b r 00000000 @04 -> + 00000000 @00; 1i
Debug: 1051 1409 batch.c:255 log_batch(): 40b - 00000000 @00 -> + 00000000 @04; 1i
Debug: 1052 1409 batch.c:199 log_dmi_decoded(): read: 
Debug: 1053 1409 riscv-013.c:1586 register_read_direct(): [riscv.cpu] s2 = 0x0
Debug: 1054 1409 riscv_reg.c:999 riscv_reg_get(): [riscv.cpu] Read s2: 0x0
Debug: 1055 1409 riscv-013_reg.c:40 riscv013_reg_get(): [riscv.cpu] Read 0x00000000 from s2 (valid=1).
Debug: 1056 1409 riscv_reg.c:990 riscv_reg_get(): [riscv.cpu] Reading s3 from target
Debug: 1057 1409 riscv-013.c:5083 riscv013_get_register(): [riscv.cpu] reading register s3
Debug: 1058 1409 riscv-013.c:1567 register_read_direct(): [riscv.cpu] Reading s3
Debug: 1059 1409 riscv-013.c:664 riscv013_execute_abstract_command(): [riscv.cpu] access register=0x221013 {regno=0x1013 write=arg0 transfer=enabled postexec=disabled aarpostincrement=disabled aarsize=32bit}
Debug: 1060 1409 batch.c:291 riscv_batch_run_from(): [riscv.cpu] Running batch of scans [0, 3)
Debug: 1061 1409 batch.c:255 log_batch(): 40b w 00221013 @17 -> + 00000000 @00; 1i
Debug: 1062 1409 batch.c:199 log_dmi_decoded(): write: command=0x221013 {control=0x221013}
Debug: 1063 1409 batch.c:255 log_batch(): 40b r 00000000 @16 -> + 00221013 @17; 1i
Debug: 1064 1409 batch.c:255 log_batch(): 40b - 00000000 @00 -> + 02000002 @16; 1i
Debug: 1065 1409 batch.c:199 log_dmi_decoded(): read: abstractcs=0x2000002 {datacount=2 progbufsize=2}
Debug: 1066 1409 riscv-013.c:623 abstract_cmd_batch_check_and_clear_cmderr(): [riscv.cpu] abstractcs=0x2000002 {datacount=2 relaxedpriv=full_checks busy=ready progbufsize=2 cmderr=none}
Debug: 1067 1409 batch.c:291 riscv_batch_run_from(): [riscv.cpu] Running batch of scans [0, 2)
Debug: 1068 1409 batch.c:255 log_batch(): 40b r 00000000 @04 -> + 00000000 @00; 1i
Debug: 1069 1409 batch.c:255 log_batch(): 40b - 00000000 @00 -> + 00000000 @04; 1i
Debug: 1070 1409 batch.c:199 log_dmi_decoded(): read: 
Debug: 1071 1409 riscv-013.c:1586 register_read_direct(): [riscv.cpu] s3 = 0x0
Debug: 1072 1409 riscv_reg.c:999 riscv_reg_get(): [riscv.cpu] Read s3: 0x0
Debug: 1073 1409 riscv-013_reg.c:40 riscv013_reg_get(): [riscv.cpu] Read 0x00000000 from s3 (valid=1).
Debug: 1074 1409 riscv_reg.c:990 riscv_reg_get(): [riscv.cpu] Reading s4 from target
Debug: 1075 1409 riscv-013.c:5083 riscv013_get_register(): [riscv.cpu] reading register s4
Debug: 1076 1409 riscv-013.c:1567 register_read_direct(): [riscv.cpu] Reading s4
Debug: 1077 1409 riscv-013.c:664 riscv013_execute_abstract_command(): [riscv.cpu] access register=0x221014 {regno=0x1014 write=arg0 transfer=enabled postexec=disabled aarpostincrement=disabled aarsize=32bit}
Debug: 1078 1409 batch.c:291 riscv_batch_run_from(): [riscv.cpu] Running batch of scans [0, 3)
Debug: 1079 1410 batch.c:255 log_batch(): 40b w 00221014 @17 -> + 00000000 @00; 1i
Debug: 1080 1410 batch.c:199 log_dmi_decoded(): write: command=0x221014 {control=0x221014}
Debug: 1081 1410 batch.c:255 log_batch(): 40b r 00000000 @16 -> + 00221014 @17; 1i
Debug: 1082 1410 batch.c:255 log_batch(): 40b - 00000000 @00 -> + 02000002 @16; 1i
Debug: 1083 1410 batch.c:199 log_dmi_decoded(): read: abstractcs=0x2000002 {datacount=2 progbufsize=2}
Debug: 1084 1410 riscv-013.c:623 abstract_cmd_batch_check_and_clear_cmderr(): [riscv.cpu] abstractcs=0x2000002 {datacount=2 relaxedpriv=full_checks busy=ready progbufsize=2 cmderr=none}
Debug: 1085 1410 batch.c:291 riscv_batch_run_from(): [riscv.cpu] Running batch of scans [0, 2)
Debug: 1086 1410 batch.c:255 log_batch(): 40b r 00000000 @04 -> + 00000000 @00; 1i
Debug: 1087 1410 batch.c:255 log_batch(): 40b - 00000000 @00 -> + 00000000 @04; 1i
Debug: 1088 1410 batch.c:199 log_dmi_decoded(): read: 
Debug: 1089 1410 riscv-013.c:1586 register_read_direct(): [riscv.cpu] s4 = 0x0
Debug: 1090 1410 riscv_reg.c:999 riscv_reg_get(): [riscv.cpu] Read s4: 0x0
Debug: 1091 1410 riscv-013_reg.c:40 riscv013_reg_get(): [riscv.cpu] Read 0x00000000 from s4 (valid=1).
Debug: 1092 1410 riscv_reg.c:990 riscv_reg_get(): [riscv.cpu] Reading s5 from target
Debug: 1093 1410 riscv-013.c:5083 riscv013_get_register(): [riscv.cpu] reading register s5
Debug: 1094 1410 riscv-013.c:1567 register_read_direct(): [riscv.cpu] Reading s5
Debug: 1095 1410 riscv-013.c:664 riscv013_execute_abstract_command(): [riscv.cpu] access register=0x221015 {regno=0x1015 write=arg0 transfer=enabled postexec=disabled aarpostincrement=disabled aarsize=32bit}
Debug: 1096 1410 batch.c:291 riscv_batch_run_from(): [riscv.cpu] Running batch of scans [0, 3)
Debug: 1097 1410 batch.c:255 log_batch(): 40b w 00221015 @17 -> + 00000000 @00; 1i
Debug: 1098 1410 batch.c:199 log_dmi_decoded(): write: command=0x221015 {control=0x221015}
Debug: 1099 1410 batch.c:255 log_batch(): 40b r 00000000 @16 -> + 00221015 @17; 1i
Debug: 1100 1410 batch.c:255 log_batch(): 40b - 00000000 @00 -> + 02000002 @16; 1i
Debug: 1101 1410 batch.c:199 log_dmi_decoded(): read: abstractcs=0x2000002 {datacount=2 progbufsize=2}
Debug: 1102 1410 riscv-013.c:623 abstract_cmd_batch_check_and_clear_cmderr(): [riscv.cpu] abstractcs=0x2000002 {datacount=2 relaxedpriv=full_checks busy=ready progbufsize=2 cmderr=none}
Debug: 1103 1410 batch.c:291 riscv_batch_run_from(): [riscv.cpu] Running batch of scans [0, 2)
Debug: 1104 1410 batch.c:255 log_batch(): 40b r 00000000 @04 -> + 00000000 @00; 1i
Debug: 1105 1410 batch.c:255 log_batch(): 40b - 00000000 @00 -> + 00000000 @04; 1i
Debug: 1106 1410 batch.c:199 log_dmi_decoded(): read: 
Debug: 1107 1410 riscv-013.c:1586 register_read_direct(): [riscv.cpu] s5 = 0x0
Debug: 1108 1410 riscv_reg.c:999 riscv_reg_get(): [riscv.cpu] Read s5: 0x0
Debug: 1109 1410 riscv-013_reg.c:40 riscv013_reg_get(): [riscv.cpu] Read 0x00000000 from s5 (valid=1).
Debug: 1110 1410 riscv_reg.c:990 riscv_reg_get(): [riscv.cpu] Reading s6 from target
Debug: 1111 1410 riscv-013.c:5083 riscv013_get_register(): [riscv.cpu] reading register s6
Debug: 1112 1410 riscv-013.c:1567 register_read_direct(): [riscv.cpu] Reading s6
Debug: 1113 1410 riscv-013.c:664 riscv013_execute_abstract_command(): [riscv.cpu] access register=0x221016 {regno=0x1016 write=arg0 transfer=enabled postexec=disabled aarpostincrement=disabled aarsize=32bit}
Debug: 1114 1410 batch.c:291 riscv_batch_run_from(): [riscv.cpu] Running batch of scans [0, 3)
Debug: 1115 1410 batch.c:255 log_batch(): 40b w 00221016 @17 -> + 00000000 @00; 1i
Debug: 1116 1410 batch.c:199 log_dmi_decoded(): write: command=0x221016 {control=0x221016}
Debug: 1117 1410 batch.c:255 log_batch(): 40b r 00000000 @16 -> + 00221016 @17; 1i
Debug: 1118 1410 batch.c:255 log_batch(): 40b - 00000000 @00 -> + 02000002 @16; 1i
Debug: 1119 1410 batch.c:199 log_dmi_decoded(): read: abstractcs=0x2000002 {datacount=2 progbufsize=2}
Debug: 1120 1410 riscv-013.c:623 abstract_cmd_batch_check_and_clear_cmderr(): [riscv.cpu] abstractcs=0x2000002 {datacount=2 relaxedpriv=full_checks busy=ready progbufsize=2 cmderr=none}
Debug: 1121 1410 batch.c:291 riscv_batch_run_from(): [riscv.cpu] Running batch of scans [0, 2)
Debug: 1122 1410 batch.c:255 log_batch(): 40b r 00000000 @04 -> + 00000000 @00; 1i
Debug: 1123 1411 batch.c:255 log_batch(): 40b - 00000000 @00 -> + 00000000 @04; 1i
Debug: 1124 1411 batch.c:199 log_dmi_decoded(): read: 
Debug: 1125 1411 riscv-013.c:1586 register_read_direct(): [riscv.cpu] s6 = 0x0
Debug: 1126 1411 riscv_reg.c:999 riscv_reg_get(): [riscv.cpu] Read s6: 0x0
Debug: 1127 1411 riscv-013_reg.c:40 riscv013_reg_get(): [riscv.cpu] Read 0x00000000 from s6 (valid=1).
Debug: 1128 1411 riscv_reg.c:990 riscv_reg_get(): [riscv.cpu] Reading s7 from target
Debug: 1129 1411 riscv-013.c:5083 riscv013_get_register(): [riscv.cpu] reading register s7
Debug: 1130 1411 riscv-013.c:1567 register_read_direct(): [riscv.cpu] Reading s7
Debug: 1131 1411 riscv-013.c:664 riscv013_execute_abstract_command(): [riscv.cpu] access register=0x221017 {regno=0x1017 write=arg0 transfer=enabled postexec=disabled aarpostincrement=disabled aarsize=32bit}
Debug: 1132 1411 batch.c:291 riscv_batch_run_from(): [riscv.cpu] Running batch of scans [0, 3)
Debug: 1133 1411 batch.c:255 log_batch(): 40b w 00221017 @17 -> + 00000000 @00; 1i
Debug: 1134 1411 batch.c:199 log_dmi_decoded(): write: command=0x221017 {control=0x221017}
Debug: 1135 1411 batch.c:255 log_batch(): 40b r 00000000 @16 -> + 00221017 @17; 1i
Debug: 1136 1411 batch.c:255 log_batch(): 40b - 00000000 @00 -> + 02000002 @16; 1i
Debug: 1137 1411 batch.c:199 log_dmi_decoded(): read: abstractcs=0x2000002 {datacount=2 progbufsize=2}
Debug: 1138 1411 riscv-013.c:623 abstract_cmd_batch_check_and_clear_cmderr(): [riscv.cpu] abstractcs=0x2000002 {datacount=2 relaxedpriv=full_checks busy=ready progbufsize=2 cmderr=none}
Debug: 1139 1411 batch.c:291 riscv_batch_run_from(): [riscv.cpu] Running batch of scans [0, 2)
Debug: 1140 1411 batch.c:255 log_batch(): 40b r 00000000 @04 -> + 00000000 @00; 1i
Debug: 1141 1411 batch.c:255 log_batch(): 40b - 00000000 @00 -> + 00000000 @04; 1i
Debug: 1142 1411 batch.c:199 log_dmi_decoded(): read: 
Debug: 1143 1411 riscv-013.c:1586 register_read_direct(): [riscv.cpu] s7 = 0x0
Debug: 1144 1411 riscv_reg.c:999 riscv_reg_get(): [riscv.cpu] Read s7: 0x0
Debug: 1145 1411 riscv-013_reg.c:40 riscv013_reg_get(): [riscv.cpu] Read 0x00000000 from s7 (valid=1).
Debug: 1146 1411 riscv_reg.c:990 riscv_reg_get(): [riscv.cpu] Reading s8 from target
Debug: 1147 1411 riscv-013.c:5083 riscv013_get_register(): [riscv.cpu] reading register s8
Debug: 1148 1411 riscv-013.c:1567 register_read_direct(): [riscv.cpu] Reading s8
Debug: 1149 1411 riscv-013.c:664 riscv013_execute_abstract_command(): [riscv.cpu] access register=0x221018 {regno=0x1018 write=arg0 transfer=enabled postexec=disabled aarpostincrement=disabled aarsize=32bit}
Debug: 1150 1411 batch.c:291 riscv_batch_run_from(): [riscv.cpu] Running batch of scans [0, 3)
Debug: 1151 1411 batch.c:255 log_batch(): 40b w 00221018 @17 -> + 00000000 @00; 1i
Debug: 1152 1411 batch.c:199 log_dmi_decoded(): write: command=0x221018 {control=0x221018}
Debug: 1153 1411 batch.c:255 log_batch(): 40b r 00000000 @16 -> + 00221018 @17; 1i
Debug: 1154 1411 batch.c:255 log_batch(): 40b - 00000000 @00 -> + 02000002 @16; 1i
Debug: 1155 1411 batch.c:199 log_dmi_decoded(): read: abstractcs=0x2000002 {datacount=2 progbufsize=2}
Debug: 1156 1411 riscv-013.c:623 abstract_cmd_batch_check_and_clear_cmderr(): [riscv.cpu] abstractcs=0x2000002 {datacount=2 relaxedpriv=full_checks busy=ready progbufsize=2 cmderr=none}
Debug: 1157 1411 batch.c:291 riscv_batch_run_from(): [riscv.cpu] Running batch of scans [0, 2)
Debug: 1158 1411 batch.c:255 log_batch(): 40b r 00000000 @04 -> + 00000000 @00; 1i
Debug: 1159 1411 batch.c:255 log_batch(): 40b - 00000000 @00 -> + 00000000 @04; 1i
Debug: 1160 1411 batch.c:199 log_dmi_decoded(): read: 
Debug: 1161 1411 riscv-013.c:1586 register_read_direct(): [riscv.cpu] s8 = 0x0
Debug: 1162 1411 riscv_reg.c:999 riscv_reg_get(): [riscv.cpu] Read s8: 0x0
Debug: 1163 1411 riscv-013_reg.c:40 riscv013_reg_get(): [riscv.cpu] Read 0x00000000 from s8 (valid=1).
Debug: 1164 1411 riscv_reg.c:990 riscv_reg_get(): [riscv.cpu] Reading s9 from target
Debug: 1165 1411 riscv-013.c:5083 riscv013_get_register(): [riscv.cpu] reading register s9
Debug: 1166 1411 riscv-013.c:1567 register_read_direct(): [riscv.cpu] Reading s9
Debug: 1167 1411 riscv-013.c:664 riscv013_execute_abstract_command(): [riscv.cpu] access register=0x221019 {regno=0x1019 write=arg0 transfer=enabled postexec=disabled aarpostincrement=disabled aarsize=32bit}
Debug: 1168 1411 batch.c:291 riscv_batch_run_from(): [riscv.cpu] Running batch of scans [0, 3)
Debug: 1169 1411 batch.c:255 log_batch(): 40b w 00221019 @17 -> + 00000000 @00; 1i
Debug: 1170 1411 batch.c:199 log_dmi_decoded(): write: command=0x221019 {control=0x221019}
Debug: 1171 1411 batch.c:255 log_batch(): 40b r 00000000 @16 -> + 00221019 @17; 1i
Debug: 1172 1412 batch.c:255 log_batch(): 40b - 00000000 @00 -> + 02000002 @16; 1i
Debug: 1173 1412 batch.c:199 log_dmi_decoded(): read: abstractcs=0x2000002 {datacount=2 progbufsize=2}
Debug: 1174 1412 riscv-013.c:623 abstract_cmd_batch_check_and_clear_cmderr(): [riscv.cpu] abstractcs=0x2000002 {datacount=2 relaxedpriv=full_checks busy=ready progbufsize=2 cmderr=none}
Debug: 1175 1412 batch.c:291 riscv_batch_run_from(): [riscv.cpu] Running batch of scans [0, 2)
Debug: 1176 1412 batch.c:255 log_batch(): 40b r 00000000 @04 -> + 00000000 @00; 1i
Debug: 1177 1412 batch.c:255 log_batch(): 40b - 00000000 @00 -> + 00000000 @04; 1i
Debug: 1178 1412 batch.c:199 log_dmi_decoded(): read: 
Debug: 1179 1412 riscv-013.c:1586 register_read_direct(): [riscv.cpu] s9 = 0x0
Debug: 1180 1412 riscv_reg.c:999 riscv_reg_get(): [riscv.cpu] Read s9: 0x0
Debug: 1181 1412 riscv-013_reg.c:40 riscv013_reg_get(): [riscv.cpu] Read 0x00000000 from s9 (valid=1).
Debug: 1182 1412 riscv_reg.c:990 riscv_reg_get(): [riscv.cpu] Reading s10 from target
Debug: 1183 1412 riscv-013.c:5083 riscv013_get_register(): [riscv.cpu] reading register s10
Debug: 1184 1412 riscv-013.c:1567 register_read_direct(): [riscv.cpu] Reading s10
Debug: 1185 1412 riscv-013.c:664 riscv013_execute_abstract_command(): [riscv.cpu] access register=0x22101a {regno=0x101a write=arg0 transfer=enabled postexec=disabled aarpostincrement=disabled aarsize=32bit}
Debug: 1186 1412 batch.c:291 riscv_batch_run_from(): [riscv.cpu] Running batch of scans [0, 3)
Debug: 1187 1412 batch.c:255 log_batch(): 40b w 0022101a @17 -> + 00000000 @00; 1i
Debug: 1188 1412 batch.c:199 log_dmi_decoded(): write: command=0x22101a {control=0x22101a}
Debug: 1189 1412 batch.c:255 log_batch(): 40b r 00000000 @16 -> + 0022101a @17; 1i
Debug: 1190 1412 batch.c:255 log_batch(): 40b - 00000000 @00 -> + 02000002 @16; 1i
Debug: 1191 1412 batch.c:199 log_dmi_decoded(): read: abstractcs=0x2000002 {datacount=2 progbufsize=2}
Debug: 1192 1412 riscv-013.c:623 abstract_cmd_batch_check_and_clear_cmderr(): [riscv.cpu] abstractcs=0x2000002 {datacount=2 relaxedpriv=full_checks busy=ready progbufsize=2 cmderr=none}
Debug: 1193 1412 batch.c:291 riscv_batch_run_from(): [riscv.cpu] Running batch of scans [0, 2)
Debug: 1194 1412 batch.c:255 log_batch(): 40b r 00000000 @04 -> + 00000000 @00; 1i
Debug: 1195 1412 batch.c:255 log_batch(): 40b - 00000000 @00 -> + 00000000 @04; 1i
Debug: 1196 1412 batch.c:199 log_dmi_decoded(): read: 
Debug: 1197 1412 riscv-013.c:1586 register_read_direct(): [riscv.cpu] s10 = 0x0
Debug: 1198 1412 riscv_reg.c:999 riscv_reg_get(): [riscv.cpu] Read s10: 0x0
Debug: 1199 1412 riscv-013_reg.c:40 riscv013_reg_get(): [riscv.cpu] Read 0x00000000 from s10 (valid=1).
Debug: 1200 1412 riscv_reg.c:990 riscv_reg_get(): [riscv.cpu] Reading s11 from target
Debug: 1201 1412 riscv-013.c:5083 riscv013_get_register(): [riscv.cpu] reading register s11
Debug: 1202 1412 riscv-013.c:1567 register_read_direct(): [riscv.cpu] Reading s11
Debug: 1203 1412 riscv-013.c:664 riscv013_execute_abstract_command(): [riscv.cpu] access register=0x22101b {regno=0x101b write=arg0 transfer=enabled postexec=disabled aarpostincrement=disabled aarsize=32bit}
Debug: 1204 1412 batch.c:291 riscv_batch_run_from(): [riscv.cpu] Running batch of scans [0, 3)
Debug: 1205 1412 batch.c:255 log_batch(): 40b w 0022101b @17 -> + 00000000 @00; 1i
Debug: 1206 1412 batch.c:199 log_dmi_decoded(): write: command=0x22101b {control=0x22101b}
Debug: 1207 1412 batch.c:255 log_batch(): 40b r 00000000 @16 -> + 0022101b @17; 1i
Debug: 1208 1412 batch.c:255 log_batch(): 40b - 00000000 @00 -> + 02000002 @16; 1i
Debug: 1209 1412 batch.c:199 log_dmi_decoded(): read: abstractcs=0x2000002 {datacount=2 progbufsize=2}
Debug: 1210 1412 riscv-013.c:623 abstract_cmd_batch_check_and_clear_cmderr(): [riscv.cpu] abstractcs=0x2000002 {datacount=2 relaxedpriv=full_checks busy=ready progbufsize=2 cmderr=none}
Debug: 1211 1412 batch.c:291 riscv_batch_run_from(): [riscv.cpu] Running batch of scans [0, 2)
Debug: 1212 1412 batch.c:255 log_batch(): 40b r 00000000 @04 -> + 00000000 @00; 1i
Debug: 1213 1412 batch.c:255 log_batch(): 40b - 00000000 @00 -> + 00000000 @04; 1i
Debug: 1214 1412 batch.c:199 log_dmi_decoded(): read: 
Debug: 1215 1412 riscv-013.c:1586 register_read_direct(): [riscv.cpu] s11 = 0x0
Debug: 1216 1412 riscv_reg.c:999 riscv_reg_get(): [riscv.cpu] Read s11: 0x0
Debug: 1217 1412 riscv-013_reg.c:40 riscv013_reg_get(): [riscv.cpu] Read 0x00000000 from s11 (valid=1).
Debug: 1218 1412 riscv_reg.c:990 riscv_reg_get(): [riscv.cpu] Reading t3 from target
Debug: 1219 1412 riscv-013.c:5083 riscv013_get_register(): [riscv.cpu] reading register t3
Debug: 1220 1412 riscv-013.c:1567 register_read_direct(): [riscv.cpu] Reading t3
Debug: 1221 1412 riscv-013.c:664 riscv013_execute_abstract_command(): [riscv.cpu] access register=0x22101c {regno=0x101c write=arg0 transfer=enabled postexec=disabled aarpostincrement=disabled aarsize=32bit}
Debug: 1222 1412 batch.c:291 riscv_batch_run_from(): [riscv.cpu] Running batch of scans [0, 3)
Debug: 1223 1413 batch.c:255 log_batch(): 40b w 0022101c @17 -> + 00000000 @00; 1i
Debug: 1224 1413 batch.c:199 log_dmi_decoded(): write: command=0x22101c {control=0x22101c}
Debug: 1225 1413 batch.c:255 log_batch(): 40b r 00000000 @16 -> + 0022101c @17; 1i
Debug: 1226 1413 batch.c:255 log_batch(): 40b - 00000000 @00 -> + 02000002 @16; 1i
Debug: 1227 1413 batch.c:199 log_dmi_decoded(): read: abstractcs=0x2000002 {datacount=2 progbufsize=2}
Debug: 1228 1413 riscv-013.c:623 abstract_cmd_batch_check_and_clear_cmderr(): [riscv.cpu] abstractcs=0x2000002 {datacount=2 relaxedpriv=full_checks busy=ready progbufsize=2 cmderr=none}
Debug: 1229 1413 batch.c:291 riscv_batch_run_from(): [riscv.cpu] Running batch of scans [0, 2)
Debug: 1230 1413 batch.c:255 log_batch(): 40b r 00000000 @04 -> + 00000000 @00; 1i
Debug: 1231 1413 batch.c:255 log_batch(): 40b - 00000000 @00 -> + 00000000 @04; 1i
Debug: 1232 1413 batch.c:199 log_dmi_decoded(): read: 
Debug: 1233 1413 riscv-013.c:1586 register_read_direct(): [riscv.cpu] t3 = 0x0
Debug: 1234 1413 riscv_reg.c:999 riscv_reg_get(): [riscv.cpu] Read t3: 0x0
Debug: 1235 1413 riscv-013_reg.c:40 riscv013_reg_get(): [riscv.cpu] Read 0x00000000 from t3 (valid=1).
Debug: 1236 1413 riscv_reg.c:990 riscv_reg_get(): [riscv.cpu] Reading t4 from target
Debug: 1237 1413 riscv-013.c:5083 riscv013_get_register(): [riscv.cpu] reading register t4
Debug: 1238 1413 riscv-013.c:1567 register_read_direct(): [riscv.cpu] Reading t4
Debug: 1239 1413 riscv-013.c:664 riscv013_execute_abstract_command(): [riscv.cpu] access register=0x22101d {regno=0x101d write=arg0 transfer=enabled postexec=disabled aarpostincrement=disabled aarsize=32bit}
Debug: 1240 1413 batch.c:291 riscv_batch_run_from(): [riscv.cpu] Running batch of scans [0, 3)
Debug: 1241 1413 batch.c:255 log_batch(): 40b w 0022101d @17 -> + 00000000 @00; 1i
Debug: 1242 1413 batch.c:199 log_dmi_decoded(): write: command=0x22101d {control=0x22101d}
Debug: 1243 1413 batch.c:255 log_batch(): 40b r 00000000 @16 -> + 0022101d @17; 1i
Debug: 1244 1413 batch.c:255 log_batch(): 40b - 00000000 @00 -> + 02000002 @16; 1i
Debug: 1245 1413 batch.c:199 log_dmi_decoded(): read: abstractcs=0x2000002 {datacount=2 progbufsize=2}
Debug: 1246 1413 riscv-013.c:623 abstract_cmd_batch_check_and_clear_cmderr(): [riscv.cpu] abstractcs=0x2000002 {datacount=2 relaxedpriv=full_checks busy=ready progbufsize=2 cmderr=none}
Debug: 1247 1413 batch.c:291 riscv_batch_run_from(): [riscv.cpu] Running batch of scans [0, 2)
Debug: 1248 1413 batch.c:255 log_batch(): 40b r 00000000 @04 -> + 00000000 @00; 1i
Debug: 1249 1413 batch.c:255 log_batch(): 40b - 00000000 @00 -> + 00000000 @04; 1i
Debug: 1250 1413 batch.c:199 log_dmi_decoded(): read: 
Debug: 1251 1413 riscv-013.c:1586 register_read_direct(): [riscv.cpu] t4 = 0x0
Debug: 1252 1413 riscv_reg.c:999 riscv_reg_get(): [riscv.cpu] Read t4: 0x0
Debug: 1253 1413 riscv-013_reg.c:40 riscv013_reg_get(): [riscv.cpu] Read 0x00000000 from t4 (valid=1).
Debug: 1254 1413 riscv_reg.c:990 riscv_reg_get(): [riscv.cpu] Reading t5 from target
Debug: 1255 1413 riscv-013.c:5083 riscv013_get_register(): [riscv.cpu] reading register t5
Debug: 1256 1413 riscv-013.c:1567 register_read_direct(): [riscv.cpu] Reading t5
Debug: 1257 1413 riscv-013.c:664 riscv013_execute_abstract_command(): [riscv.cpu] access register=0x22101e {regno=0x101e write=arg0 transfer=enabled postexec=disabled aarpostincrement=disabled aarsize=32bit}
Debug: 1258 1413 batch.c:291 riscv_batch_run_from(): [riscv.cpu] Running batch of scans [0, 3)
Debug: 1259 1413 batch.c:255 log_batch(): 40b w 0022101e @17 -> + 00000000 @00; 1i
Debug: 1260 1413 batch.c:199 log_dmi_decoded(): write: command=0x22101e {control=0x22101e}
Debug: 1261 1413 batch.c:255 log_batch(): 40b r 00000000 @16 -> + 0022101e @17; 1i
Debug: 1262 1413 batch.c:255 log_batch(): 40b - 00000000 @00 -> + 02000002 @16; 1i
Debug: 1263 1413 batch.c:199 log_dmi_decoded(): read: abstractcs=0x2000002 {datacount=2 progbufsize=2}
Debug: 1264 1413 riscv-013.c:623 abstract_cmd_batch_check_and_clear_cmderr(): [riscv.cpu] abstractcs=0x2000002 {datacount=2 relaxedpriv=full_checks busy=ready progbufsize=2 cmderr=none}
Debug: 1265 1413 batch.c:291 riscv_batch_run_from(): [riscv.cpu] Running batch of scans [0, 2)
Debug: 1266 1414 batch.c:255 log_batch(): 40b r 00000000 @04 -> + 00000000 @00; 1i
Debug: 1267 1414 batch.c:255 log_batch(): 40b - 00000000 @00 -> + 00000000 @04; 1i
Debug: 1268 1414 batch.c:199 log_dmi_decoded(): read: 
Debug: 1269 1414 riscv-013.c:1586 register_read_direct(): [riscv.cpu] t5 = 0x0
Debug: 1270 1414 riscv_reg.c:999 riscv_reg_get(): [riscv.cpu] Read t5: 0x0
Debug: 1271 1414 riscv-013_reg.c:40 riscv013_reg_get(): [riscv.cpu] Read 0x00000000 from t5 (valid=1).
Debug: 1272 1414 riscv_reg.c:990 riscv_reg_get(): [riscv.cpu] Reading t6 from target
Debug: 1273 1414 riscv-013.c:5083 riscv013_get_register(): [riscv.cpu] reading register t6
Debug: 1274 1414 riscv-013.c:1567 register_read_direct(): [riscv.cpu] Reading t6
Debug: 1275 1414 riscv-013.c:664 riscv013_execute_abstract_command(): [riscv.cpu] access register=0x22101f {regno=0x101f write=arg0 transfer=enabled postexec=disabled aarpostincrement=disabled aarsize=32bit}
Debug: 1276 1414 batch.c:291 riscv_batch_run_from(): [riscv.cpu] Running batch of scans [0, 3)
Debug: 1277 1414 batch.c:255 log_batch(): 40b w 0022101f @17 -> + 00000000 @00; 1i
Debug: 1278 1414 batch.c:199 log_dmi_decoded(): write: command=0x22101f {control=0x22101f}
Debug: 1279 1414 batch.c:255 log_batch(): 40b r 00000000 @16 -> + 0022101f @17; 1i
Debug: 1280 1414 batch.c:255 log_batch(): 40b - 00000000 @00 -> + 02000002 @16; 1i
Debug: 1281 1414 batch.c:199 log_dmi_decoded(): read: abstractcs=0x2000002 {datacount=2 progbufsize=2}
Debug: 1282 1414 riscv-013.c:623 abstract_cmd_batch_check_and_clear_cmderr(): [riscv.cpu] abstractcs=0x2000002 {datacount=2 relaxedpriv=full_checks busy=ready progbufsize=2 cmderr=none}
Debug: 1283 1414 batch.c:291 riscv_batch_run_from(): [riscv.cpu] Running batch of scans [0, 2)
Debug: 1284 1414 batch.c:255 log_batch(): 40b r 00000000 @04 -> + 00000000 @00; 1i
Debug: 1285 1414 batch.c:255 log_batch(): 40b - 00000000 @00 -> + 00000000 @04; 1i
Debug: 1286 1414 batch.c:199 log_dmi_decoded(): read: 
Debug: 1287 1414 riscv-013.c:1586 register_read_direct(): [riscv.cpu] t6 = 0x0
Debug: 1288 1414 riscv_reg.c:999 riscv_reg_get(): [riscv.cpu] Read t6: 0x0
Debug: 1289 1414 riscv-013_reg.c:40 riscv013_reg_get(): [riscv.cpu] Read 0x00000000 from t6 (valid=1).
Debug: 1290 1414 riscv_reg.c:990 riscv_reg_get(): [riscv.cpu] Reading dpc from target
Debug: 1291 1414 riscv-013.c:5083 riscv013_get_register(): [riscv.cpu] reading register dpc
Debug: 1292 1414 riscv-013.c:1567 register_read_direct(): [riscv.cpu] Reading dpc
Debug: 1293 1414 riscv-013.c:664 riscv013_execute_abstract_command(): [riscv.cpu] access register=0x2207b1 {regno=0x7b1 write=arg0 transfer=enabled postexec=disabled aarpostincrement=disabled aarsize=32bit}
Debug: 1294 1414 batch.c:291 riscv_batch_run_from(): [riscv.cpu] Running batch of scans [0, 3)
Debug: 1295 1414 batch.c:255 log_batch(): 40b w 002207b1 @17 -> + 00000000 @00; 1i
Debug: 1296 1414 batch.c:199 log_dmi_decoded(): write: command=0x2207b1 {control=0x2207b1}
Debug: 1297 1414 batch.c:255 log_batch(): 40b r 00000000 @16 -> + 002207b1 @17; 1i
Debug: 1298 1414 batch.c:255 log_batch(): 40b - 00000000 @00 -> + 02000002 @16; 1i
Debug: 1299 1414 batch.c:199 log_dmi_decoded(): read: abstractcs=0x2000002 {datacount=2 progbufsize=2}
Debug: 1300 1414 riscv-013.c:623 abstract_cmd_batch_check_and_clear_cmderr(): [riscv.cpu] abstractcs=0x2000002 {datacount=2 relaxedpriv=full_checks busy=ready progbufsize=2 cmderr=none}
Debug: 1301 1414 batch.c:291 riscv_batch_run_from(): [riscv.cpu] Running batch of scans [0, 2)
Debug: 1302 1414 batch.c:255 log_batch(): 40b r 00000000 @04 -> + 00000000 @00; 1i
Debug: 1303 1414 batch.c:255 log_batch(): 40b - 00000000 @00 -> + 00000000 @04; 1i
Debug: 1304 1414 batch.c:199 log_dmi_decoded(): read: 
Debug: 1305 1414 riscv-013.c:1586 register_read_direct(): [riscv.cpu] dpc = 0x0
Debug: 1306 1414 riscv_reg.c:999 riscv_reg_get(): [riscv.cpu] Read dpc: 0x0
Debug: 1307 1414 riscv-013_reg.c:40 riscv013_reg_get(): [riscv.cpu] Read 0x00000000 from pc (valid=0).
Debug: 1308 1414 riscv_reg.c:985 riscv_reg_get(): [riscv.cpu] Read dpc: 0x0 (cached)
Debug: 1309 1414 riscv-013_reg.c:40 riscv013_reg_get(): [riscv.cpu] Read 0x00000000 from pc (valid=0).
Debug: 1310 1414 gdb_server.c:441 gdb_log_outgoing_packet(): [riscv.cpu] {1} sending packet: $00000000f6001110480211107c0a1110000000007c0211107c0211100000100078021110000000000a00000014000000000000000000000003000000020000000000000000000000000000000000000000000000000000000000000000000000000000000000000000000000000000000000000000000000000000000000000000000000#0c
Debug: 1311 1415 riscv.c:4029 riscv_openocd_poll(): [riscv.cpu] Polling all harts.
Debug: 1312 1415 riscv.c:3852 riscv_poll_hart(): [riscv.cpu] polling, target->state=2
Debug: 1313 1415 batch.c:291 riscv_batch_run_from(): [riscv.cpu] Running batch of scans [0, 2)
Debug: 1314 1415 batch.c:255 log_batch(): 40b r 00000000 @11 -> + 00000000 @00; 1i
Debug: 1315 1415 batch.c:255 log_batch(): 40b - 00000000 @00 -> + 00430382 @11; 1i
Debug: 1316 1415 batch.c:199 log_dmi_decoded(): read: dmstatus=0x430382 {version=0_13 anyresumeack=1 allresumeack=1 impebreak=1 authenticated=true anyhalted=1 allhalted=1}
Debug: 1317 1415 riscv_reg.c:792 riscv_reg_flush_all(): [riscv.cpu] Flushing register cache
Debug: 1318 1415 riscv_reg.c:809 riscv_reg_flush_all(): [riscv.cpu] Flush of register cache completed
Debug: 1319 1415 riscv.c:4085 riscv_openocd_poll(): [riscv.cpu] should_remain_halted=0, should_resume=0
Debug: 1320 1415 target.c:3001 handle_target(): [riscv.cpu] target_poll() -> 0, next attempt in 100ms
Debug: 1321 1415 gdb_server.c:424 gdb_log_incoming_packet(): [riscv.cpu] {1} received packet: qXfer:threads:read::0,1000
Debug: 1322 1415 gdb_server.c:438 gdb_log_outgoing_packet(): [riscv.cpu] {1} sending packet: $<binary-data-44-bytes>#02
Debug: 1323 1515 riscv.c:4029 riscv_openocd_poll(): [riscv.cpu] Polling all harts.
Debug: 1324 1515 riscv.c:3852 riscv_poll_hart(): [riscv.cpu] polling, target->state=2
Debug: 1325 1515 batch.c:291 riscv_batch_run_from(): [riscv.cpu] Running batch of scans [0, 2)
Debug: 1326 1515 batch.c:255 log_batch(): 40b r 00000000 @11 -> + 00000000 @00; 1i
Debug: 1327 1515 batch.c:255 log_batch(): 40b - 00000000 @00 -> + 00430382 @11; 1i
Debug: 1328 1515 batch.c:199 log_dmi_decoded(): read: dmstatus=0x430382 {version=0_13 anyresumeack=1 allresumeack=1 impebreak=1 authenticated=true anyhalted=1 allhalted=1}
Debug: 1329 1515 riscv_reg.c:792 riscv_reg_flush_all(): [riscv.cpu] Flushing register cache
Debug: 1330 1515 riscv_reg.c:809 riscv_reg_flush_all(): [riscv.cpu] Flush of register cache completed
Debug: 1331 1515 riscv.c:4085 riscv_openocd_poll(): [riscv.cpu] should_remain_halted=0, should_resume=0
Debug: 1332 1515 target.c:3001 handle_target(): [riscv.cpu] target_poll() -> 0, next attempt in 100ms
Debug: 1333 1616 riscv.c:4029 riscv_openocd_poll(): [riscv.cpu] Polling all harts.
Debug: 1334 1616 riscv.c:3852 riscv_poll_hart(): [riscv.cpu] polling, target->state=2
Debug: 1335 1616 batch.c:291 riscv_batch_run_from(): [riscv.cpu] Running batch of scans [0, 2)
Debug: 1336 1616 batch.c:255 log_batch(): 40b r 00000000 @11 -> + 00000000 @00; 1i
Debug: 1337 1616 batch.c:255 log_batch(): 40b - 00000000 @00 -> + 00430382 @11; 1i
Debug: 1338 1616 batch.c:199 log_dmi_decoded(): read: dmstatus=0x430382 {version=0_13 anyresumeack=1 allresumeack=1 impebreak=1 authenticated=true anyhalted=1 allhalted=1}
Debug: 1339 1616 riscv_reg.c:792 riscv_reg_flush_all(): [riscv.cpu] Flushing register cache
Debug: 1340 1616 riscv_reg.c:809 riscv_reg_flush_all(): [riscv.cpu] Flush of register cache completed
Debug: 1341 1616 riscv.c:4085 riscv_openocd_poll(): [riscv.cpu] should_remain_halted=0, should_resume=0
Debug: 1342 1616 target.c:3001 handle_target(): [riscv.cpu] target_poll() -> 0, next attempt in 100ms
Debug: 1343 1716 riscv.c:4029 riscv_openocd_poll(): [riscv.cpu] Polling all harts.
Debug: 1344 1716 riscv.c:3852 riscv_poll_hart(): [riscv.cpu] polling, target->state=2
Debug: 1345 1716 batch.c:291 riscv_batch_run_from(): [riscv.cpu] Running batch of scans [0, 2)
Debug: 1346 1717 batch.c:255 log_batch(): 40b r 00000000 @11 -> + 00000000 @00; 1i
Debug: 1347 1717 batch.c:255 log_batch(): 40b - 00000000 @00 -> + 00430382 @11; 1i
Debug: 1348 1717 batch.c:199 log_dmi_decoded(): read: dmstatus=0x430382 {version=0_13 anyresumeack=1 allresumeack=1 impebreak=1 authenticated=true anyhalted=1 allhalted=1}
Debug: 1349 1717 riscv_reg.c:792 riscv_reg_flush_all(): [riscv.cpu] Flushing register cache
Debug: 1350 1717 riscv_reg.c:809 riscv_reg_flush_all(): [riscv.cpu] Flush of register cache completed
Debug: 1351 1717 riscv.c:4085 riscv_openocd_poll(): [riscv.cpu] should_remain_halted=0, should_resume=0
Debug: 1352 1717 target.c:3001 handle_target(): [riscv.cpu] target_poll() -> 0, next attempt in 100ms
Debug: 1353 1816 riscv.c:4029 riscv_openocd_poll(): [riscv.cpu] Polling all harts.
Debug: 1354 1816 riscv.c:3852 riscv_poll_hart(): [riscv.cpu] polling, target->state=2
Debug: 1355 1816 batch.c:291 riscv_batch_run_from(): [riscv.cpu] Running batch of scans [0, 2)
Debug: 1356 1816 batch.c:255 log_batch(): 40b r 00000000 @11 -> + 00000000 @00; 1i
Debug: 1357 1816 batch.c:255 log_batch(): 40b - 00000000 @00 -> + 00430382 @11; 1i
Debug: 1358 1816 batch.c:199 log_dmi_decoded(): read: dmstatus=0x430382 {version=0_13 anyresumeack=1 allresumeack=1 impebreak=1 authenticated=true anyhalted=1 allhalted=1}
Debug: 1359 1816 riscv_reg.c:792 riscv_reg_flush_all(): [riscv.cpu] Flushing register cache
Debug: 1360 1816 riscv_reg.c:809 riscv_reg_flush_all(): [riscv.cpu] Flush of register cache completed
Debug: 1361 1816 riscv.c:4085 riscv_openocd_poll(): [riscv.cpu] should_remain_halted=0, should_resume=0
Debug: 1362 1816 target.c:3001 handle_target(): [riscv.cpu] target_poll() -> 0, next attempt in 100ms
Debug: 1363 1916 riscv.c:4029 riscv_openocd_poll(): [riscv.cpu] Polling all harts.
Debug: 1364 1916 riscv.c:3852 riscv_poll_hart(): [riscv.cpu] polling, target->state=2
Debug: 1365 1916 batch.c:291 riscv_batch_run_from(): [riscv.cpu] Running batch of scans [0, 2)
Debug: 1366 1917 batch.c:255 log_batch(): 40b r 00000000 @11 -> + 00000000 @00; 1i
Debug: 1367 1917 batch.c:255 log_batch(): 40b - 00000000 @00 -> + 00430382 @11; 1i
Debug: 1368 1917 batch.c:199 log_dmi_decoded(): read: dmstatus=0x430382 {version=0_13 anyresumeack=1 allresumeack=1 impebreak=1 authenticated=true anyhalted=1 allhalted=1}
Debug: 1369 1917 riscv_reg.c:792 riscv_reg_flush_all(): [riscv.cpu] Flushing register cache
Debug: 1370 1917 riscv_reg.c:809 riscv_reg_flush_all(): [riscv.cpu] Flush of register cache completed
Debug: 1371 1917 riscv.c:4085 riscv_openocd_poll(): [riscv.cpu] should_remain_halted=0, should_resume=0
Debug: 1372 1917 target.c:3001 handle_target(): [riscv.cpu] target_poll() -> 0, next attempt in 100ms
Debug: 1373 2016 riscv.c:4029 riscv_openocd_poll(): [riscv.cpu] Polling all harts.
Debug: 1374 2016 riscv.c:3852 riscv_poll_hart(): [riscv.cpu] polling, target->state=2
Debug: 1375 2016 batch.c:291 riscv_batch_run_from(): [riscv.cpu] Running batch of scans [0, 2)
Debug: 1376 2016 batch.c:255 log_batch(): 40b r 00000000 @11 -> + 00000000 @00; 1i
Debug: 1377 2016 batch.c:255 log_batch(): 40b - 00000000 @00 -> + 00430382 @11; 1i
Debug: 1378 2016 batch.c:199 log_dmi_decoded(): read: dmstatus=0x430382 {version=0_13 anyresumeack=1 allresumeack=1 impebreak=1 authenticated=true anyhalted=1 allhalted=1}
Debug: 1379 2016 riscv_reg.c:792 riscv_reg_flush_all(): [riscv.cpu] Flushing register cache
Debug: 1380 2016 riscv_reg.c:809 riscv_reg_flush_all(): [riscv.cpu] Flush of register cache completed
Debug: 1381 2016 riscv.c:4085 riscv_openocd_poll(): [riscv.cpu] should_remain_halted=0, should_resume=0
Debug: 1382 2016 target.c:3001 handle_target(): [riscv.cpu] target_poll() -> 0, next attempt in 100ms
Debug: 1383 2117 riscv.c:4029 riscv_openocd_poll(): [riscv.cpu] Polling all harts.
Debug: 1384 2117 riscv.c:3852 riscv_poll_hart(): [riscv.cpu] polling, target->state=2
Debug: 1385 2117 batch.c:291 riscv_batch_run_from(): [riscv.cpu] Running batch of scans [0, 2)
Debug: 1386 2117 batch.c:255 log_batch(): 40b r 00000000 @11 -> + 00000000 @00; 1i
Debug: 1387 2117 batch.c:255 log_batch(): 40b - 00000000 @00 -> + 00430382 @11; 1i
Debug: 1388 2117 batch.c:199 log_dmi_decoded(): read: dmstatus=0x430382 {version=0_13 anyresumeack=1 allresumeack=1 impebreak=1 authenticated=true anyhalted=1 allhalted=1}
Debug: 1389 2117 riscv_reg.c:792 riscv_reg_flush_all(): [riscv.cpu] Flushing register cache
Debug: 1390 2117 riscv_reg.c:809 riscv_reg_flush_all(): [riscv.cpu] Flush of register cache completed
Debug: 1391 2117 riscv.c:4085 riscv_openocd_poll(): [riscv.cpu] should_remain_halted=0, should_resume=0
Debug: 1392 2117 target.c:3001 handle_target(): [riscv.cpu] target_poll() -> 0, next attempt in 100ms
Debug: 1393 2165 gdb_server.c:424 gdb_log_incoming_packet(): [riscv.cpu] {1} received packet: qSymbol::
Debug: 1394 2165 gdb_server.c:441 gdb_log_outgoing_packet(): [riscv.cpu] {1} sending packet: $OK#9a
Debug: 1395 2165 gdb_server.c:424 gdb_log_incoming_packet(): [riscv.cpu] {1} received packet: X10110000,0:
Debug: 1396 2166 gdb_server.c:441 gdb_log_outgoing_packet(): [riscv.cpu] {1} sending packet: $OK#9a
Debug: 1397 2166 gdb_server.c:416 gdb_log_incoming_packet(): [riscv.cpu] {1} received packet: X10110000,106:<binary-data-6-bytes>
Debug: 1398 2166 gdb_server.c:441 gdb_log_outgoing_packet(): [riscv.cpu] {1} sending packet: $OK#9a
Debug: 1399 2166 gdb_server.c:1730 gdb_write_memory_binary_packet(): addr: 0x10110000, len: 0x00000106
Debug: 1400 2166 target.c:2350 target_write_buffer(): writing buffer of 262 byte at 0x10110000
Debug: 1401 2166 riscv_reg.c:990 riscv_reg_get(): [riscv.cpu] Reading priv from target
Debug: 1402 2166 riscv_reg.c:990 riscv_reg_get(): [riscv.cpu] Reading dcsr from target
Debug: 1403 2166 riscv-013.c:5083 riscv013_get_register(): [riscv.cpu] reading register dcsr
Debug: 1404 2166 riscv-013.c:1567 register_read_direct(): [riscv.cpu] Reading dcsr
Debug: 1405 2166 riscv-013.c:664 riscv013_execute_abstract_command(): [riscv.cpu] access register=0x2207b0 {regno=0x7b0 write=arg0 transfer=enabled postexec=disabled aarpostincrement=disabled aarsize=32bit}
Debug: 1406 2166 batch.c:291 riscv_batch_run_from(): [riscv.cpu] Running batch of scans [0, 3)
Debug: 1407 2166 batch.c:255 log_batch(): 40b w 002207b0 @17 -> + 00000000 @00; 1i
Debug: 1408 2166 batch.c:199 log_dmi_decoded(): write: command=0x2207b0 {control=0x2207b0}
Debug: 1409 2166 batch.c:255 log_batch(): 40b r 00000000 @16 -> + 002207b0 @17; 1i
Debug: 1410 2166 batch.c:255 log_batch(): 40b - 00000000 @00 -> + 02000002 @16; 1i
Debug: 1411 2166 batch.c:199 log_dmi_decoded(): read: abstractcs=0x2000002 {datacount=2 progbufsize=2}
Debug: 1412 2166 riscv-013.c:623 abstract_cmd_batch_check_and_clear_cmderr(): [riscv.cpu] abstractcs=0x2000002 {datacount=2 relaxedpriv=full_checks busy=ready progbufsize=2 cmderr=none}
Debug: 1413 2166 batch.c:291 riscv_batch_run_from(): [riscv.cpu] Running batch of scans [0, 2)
Debug: 1414 2167 batch.c:255 log_batch(): 40b r 00000000 @04 -> + 00000000 @00; 1i
Debug: 1415 2167 batch.c:255 log_batch(): 40b - 00000000 @00 -> + 4003b0c3 @04; 1i
Debug: 1416 2167 batch.c:199 log_dmi_decoded(): read: 
Debug: 1417 2167 riscv-013.c:1586 register_read_direct(): [riscv.cpu] dcsr = 0x4003b0c3
Debug: 1418 2167 riscv_reg.c:999 riscv_reg_get(): [riscv.cpu] Read dcsr: 0x4003b0c3
Debug: 1419 2167 riscv_reg.c:999 riscv_reg_get(): [riscv.cpu] Read priv: 0x3
Debug: 1420 2167 riscv_reg.c:990 riscv_reg_get(): [riscv.cpu] Reading priv from target
Debug: 1421 2167 riscv_reg.c:985 riscv_reg_get(): [riscv.cpu] Read dcsr: 0x4003b0c3 (cached)
Debug: 1422 2167 riscv_reg.c:999 riscv_reg_get(): [riscv.cpu] Read priv: 0x3
Debug: 1423 2167 riscv_reg.c:990 riscv_reg_get(): [riscv.cpu] Reading mstatus from target
Debug: 1424 2167 riscv-013.c:5083 riscv013_get_register(): [riscv.cpu] reading register mstatus
Debug: 1425 2167 riscv-013.c:1567 register_read_direct(): [riscv.cpu] Reading mstatus
Debug: 1426 2167 riscv-013.c:664 riscv013_execute_abstract_command(): [riscv.cpu] access register=0x220300 {regno=0x300 write=arg0 transfer=enabled postexec=disabled aarpostincrement=disabled aarsize=32bit}
Debug: 1427 2167 batch.c:291 riscv_batch_run_from(): [riscv.cpu] Running batch of scans [0, 3)
Debug: 1428 2167 batch.c:255 log_batch(): 40b w 00220300 @17 -> + 00000000 @00; 1i
Debug: 1429 2167 batch.c:199 log_dmi_decoded(): write: command=0x220300 {control=0x220300}
Debug: 1430 2167 batch.c:255 log_batch(): 40b r 00000000 @16 -> + 00220300 @17; 1i
Debug: 1431 2167 batch.c:255 log_batch(): 40b - 00000000 @00 -> + 02000002 @16; 1i
Debug: 1432 2167 batch.c:199 log_dmi_decoded(): read: abstractcs=0x2000002 {datacount=2 progbufsize=2}
Debug: 1433 2167 riscv-013.c:623 abstract_cmd_batch_check_and_clear_cmderr(): [riscv.cpu] abstractcs=0x2000002 {datacount=2 relaxedpriv=full_checks busy=ready progbufsize=2 cmderr=none}
Debug: 1434 2167 batch.c:291 riscv_batch_run_from(): [riscv.cpu] Running batch of scans [0, 2)
Debug: 1435 2167 batch.c:255 log_batch(): 40b r 00000000 @04 -> + 00000000 @00; 1i
Debug: 1436 2167 batch.c:255 log_batch(): 40b - 00000000 @00 -> + 00001800 @04; 1i
Debug: 1437 2167 batch.c:199 log_dmi_decoded(): read: 
Debug: 1438 2167 riscv-013.c:1586 register_read_direct(): [riscv.cpu] mstatus = 0x1800
Debug: 1439 2167 riscv_reg.c:999 riscv_reg_get(): [riscv.cpu] Read mstatus: 0x1800
Debug: 1440 2167 riscv.c:2999 riscv_effective_privilege_mode(): [riscv.cpu] Effective mode=3; v=0
Debug: 1441 2167 riscv.c:3074 riscv_mmu(): [riscv.cpu] SATP/MMU ignored in Machine mode.
Debug: 1442 2167 riscv-013.c:4924 write_memory_progbuf(): [riscv.cpu] writing 65 words of 4 bytes to 0x10110000
Debug: 1443 2167 riscv-013_reg.c:382 riscv013_reg_save(): [riscv.cpu] Saving fp
Debug: 1444 2167 riscv_reg.c:985 riscv_reg_get(): [riscv.cpu] Read fp: 0x10110278 (cached)
Debug: 1445 2167 riscv-013_reg.c:382 riscv013_reg_save(): [riscv.cpu] Saving s1
Debug: 1446 2167 riscv_reg.c:985 riscv_reg_get(): [riscv.cpu] Read s1: 0x0 (cached)
Debug: 1447 2167 program.c:33 riscv_program_write(): [riscv.cpu] progbuf[00] = DASM(0x00942023)
Debug: 1448 2167 batch.c:291 riscv_batch_run_from(): [riscv.cpu] Running batch of scans [0, 2)
Debug: 1449 2167 batch.c:255 log_batch(): 40b w 00942023 @20 -> + 00000000 @00; 1i
Debug: 1450 2167 batch.c:199 log_dmi_decoded(): write: 
Debug: 1451 2167 batch.c:255 log_batch(): 40b - 00000000 @00 -> + 00942023 @20; 1i
Debug: 1452 2167 program.c:33 riscv_program_write(): [riscv.cpu] progbuf[01] = DASM(0x00440413)
Debug: 1453 2167 batch.c:291 riscv_batch_run_from(): [riscv.cpu] Running batch of scans [0, 2)
Debug: 1454 2168 batch.c:255 log_batch(): 40b w 00440413 @21 -> + 00000000 @00; 1i
Debug: 1455 2168 batch.c:199 log_dmi_decoded(): write: 
Debug: 1456 2168 batch.c:255 log_batch(): 40b - 00000000 @00 -> + 00440413 @21; 1i
Debug: 1457 2168 riscv-013.c:1538 register_write_direct(): [riscv.cpu] Writing 0x10110000 to fp
Debug: 1458 2168 riscv-013.c:901 register_write_abstract(): [riscv.cpu] access register=0x231008 {regno=0x1008 write=register transfer=enabled postexec=disabled aarpostincrement=disabled aarsize=32bit}
Debug: 1459 2168 batch.c:291 riscv_batch_run_from(): [riscv.cpu] Running batch of scans [0, 4)
Debug: 1460 2168 batch.c:255 log_batch(): 40b w 10110000 @04 -> + 00000000 @00; 1i
Debug: 1461 2168 batch.c:199 log_dmi_decoded(): write: 
Debug: 1462 2168 batch.c:255 log_batch(): 40b w 00231008 @17 -> + 10110000 @04; 1i
Debug: 1463 2168 batch.c:199 log_dmi_decoded(): write: command=0x231008 {control=0x231008}
Debug: 1464 2168 batch.c:255 log_batch(): 40b r 00000000 @16 -> + 00231008 @17; 1i
Debug: 1465 2168 batch.c:255 log_batch(): 40b - 00000000 @00 -> + 02000002 @16; 1i
Debug: 1466 2168 batch.c:199 log_dmi_decoded(): read: abstractcs=0x2000002 {datacount=2 progbufsize=2}
Debug: 1467 2168 riscv-013.c:623 abstract_cmd_batch_check_and_clear_cmderr(): [riscv.cpu] abstractcs=0x2000002 {datacount=2 relaxedpriv=full_checks busy=ready progbufsize=2 cmderr=none}
Debug: 1468 2168 riscv-013.c:1557 register_write_direct(): [riscv.cpu] fp <- 0x10110000
Debug: 1469 2168 batch.c:291 riscv_batch_run_from(): [riscv.cpu] Running batch of scans [0, 2)
Debug: 1470 2168 batch.c:255 log_batch(): 40b w a001a011 @04 -> + 00000000 @00; 1i
Debug: 1471 2168 batch.c:199 log_dmi_decoded(): write: 
Debug: 1472 2168 batch.c:255 log_batch(): 40b - 00000000 @00 -> + a001a011 @04; 1i
Debug: 1473 2168 riscv-013.c:664 riscv013_execute_abstract_command(): [riscv.cpu] access register=0x271009 {regno=0x1009 write=register transfer=enabled postexec=enabled aarpostincrement=disabled aarsize=32bit}
Debug: 1474 2168 batch.c:291 riscv_batch_run_from(): [riscv.cpu] Running batch of scans [0, 3)
Debug: 1475 2169 batch.c:255 log_batch(): 40b w 00271009 @17 -> + 00000000 @00; 1i
Debug: 1476 2169 batch.c:199 log_dmi_decoded(): write: command=0x271009 {control=0x271009}
Debug: 1477 2169 batch.c:255 log_batch(): 40b r 00000000 @16 -> + 00271009 @17; 1i
Debug: 1478 2169 batch.c:255 log_batch(): 40b - 00000000 @00 -> + 02000002 @16; 1i
Debug: 1479 2169 batch.c:199 log_dmi_decoded(): read: abstractcs=0x2000002 {datacount=2 progbufsize=2}
Debug: 1480 2169 riscv-013.c:623 abstract_cmd_batch_check_and_clear_cmderr(): [riscv.cpu] abstractcs=0x2000002 {datacount=2 relaxedpriv=full_checks busy=ready progbufsize=2 cmderr=none}
Debug: 1481 2169 riscv-013.c:3071 log_memory_access64(): M[0x10110000] writes 0xa001a011
Debug: 1482 2169 batch.c:291 riscv_batch_run_from(): [riscv.cpu] Running batch of scans [0, 2)
Debug: 1483 2169 batch.c:255 log_batch(): 40b w 00000001 @18 -> + 00000000 @00; 1i
Debug: 1484 2169 batch.c:199 log_dmi_decoded(): write: 
Debug: 1485 2169 batch.c:255 log_batch(): 40b - 00000000 @00 -> + 00000001 @18; 1i
Debug: 1486 2169 riscv-013.c:3071 log_memory_access64(): M[0x10110004] writes 0x30005073
Debug: 1487 2169 riscv-013.c:3071 log_memory_access64(): M[0x10110008] writes 0x30102373
Debug: 1488 2169 riscv-013.c:3071 log_memory_access64(): M[0x1011000c] writes 0x03d24385
Debug: 1489 2169 riscv-013.c:3071 log_memory_access64(): M[0x10110010] writes 0x007373b3
Debug: 1490 2169 riscv-013.c:3071 log_memory_access64(): M[0x10110014] writes 0x00701963
Debug: 1491 2169 riscv-013.c:3071 log_memory_access64(): M[0x10110018] writes 0x03ca4385
Debug: 1492 2169 riscv-013.c:3071 log_memory_access64(): M[0x1011001c] writes 0x007373b3
Debug: 1493 2169 riscv-013.c:3071 log_memory_access64(): M[0x10110020] writes 0x00701363
Debug: 1494 2169 riscv-013.c:3071 log_memory_access64(): M[0x10110024] writes 0x5073a029
Debug: 1495 2169 riscv-013.c:3071 log_memory_access64(): M[0x10110028] writes 0x50733030
Debug: 1496 2169 riscv-013.c:3071 log_memory_access64(): M[0x1011002c] writes 0x50733020
Debug: 1497 2169 riscv-013.c:3071 log_memory_access64(): M[0x10110030] writes 0x11973040
Debug: 1498 2169 riscv-013.c:3071 log_memory_access64(): M[0x10110034] writes 0x81930000
Debug: 1499 2169 riscv-013.c:3071 log_memory_access64(): M[0x10110038] writes 0x0117a4a1
Debug: 1500 2169 riscv-013.c:3071 log_memory_access64(): M[0x1011003c] writes 0x01130000
Debug: 1501 2169 riscv-013.c:3071 log_memory_access64(): M[0x10110040] writes 0x03130d61
Debug: 1502 2169 riscv-013.c:3071 log_memory_access64(): M[0x10110044] writes 0x22f31680
Debug: 1503 2169 riscv-013.c:3071 log_memory_access64(): M[0x10110048] writes 0x0285f140
Debug: 1504 2169 riscv-013.c:3071 log_memory_access64(): M[0x1011004c] writes 0x12fd911a
Debug: 1505 2169 riscv-013.c:3071 log_memory_access64(): M[0x10110050] writes 0xfe029ee3
Debug: 1506 2169 riscv-013.c:3071 log_memory_access64(): M[0x10110054] writes 0x00000297
Debug: 1507 2169 riscv-013.c:3071 log_memory_access64(): M[0x10110058] writes 0x22828293
Debug: 1508 2169 riscv-013.c:3071 log_memory_access64(): M[0x1011005c] writes 0x00000317
Debug: 1509 2169 riscv-013.c:3071 log_memory_access64(): M[0x10110060] writes 0x22030313
Debug: 1510 2169 riscv-013.c:3071 log_memory_access64(): M[0x10110064] writes 0x0062d663
Debug: 1511 2169 riscv-013.c:3071 log_memory_access64(): M[0x10110068] writes 0x00028023
Debug: 1512 2169 riscv-013.c:3071 log_memory_access64(): M[0x1011006c] writes 0xbfdd0285
Debug: 1513 2169 riscv-013.c:3071 log_memory_access64(): M[0x10110070] writes 0x03c0006f
Debug: 1514 2169 riscv-013.c:3071 log_memory_access64(): M[0x10110074] writes 0x0001a001
Debug: 1515 2169 riscv-013.c:3071 log_memory_access64(): M[0x10110078] writes 0x03136361
Debug: 1516 2169 riscv-013.c:3071 log_memory_access64(): M[0x1011007c] writes 0x137d6a03
Debug: 1517 2169 riscv-013.c:3071 log_memory_access64(): M[0x10110080] writes 0xfe031fe3
Debug: 1518 2169 riscv-013.c:3071 log_memory_access64(): M[0x10110084] writes 0x30500073
Debug: 1519 2169 riscv-013.c:3071 log_memory_access64(): M[0x10110088] writes 0x0000b7f5
Debug: 1520 2169 riscv-013.c:3071 log_memory_access64(): M[0x1011008c] writes 0xce221101
Debug: 1521 2169 riscv-013.c:3071 log_memory_access64(): M[0x10110090] writes 0x26231000
Debug: 1522 2169 riscv-013.c:3071 log_memory_access64(): M[0x10110094] writes 0x2423fea4
Debug: 1523 2169 riscv-013.c:3071 log_memory_access64(): M[0x10110098] writes 0x2703feb4
Debug: 1524 2169 riscv-013.c:3071 log_memory_access64(): M[0x1011009c] writes 0x2783fec4
Debug: 1525 2169 riscv-013.c:3071 log_memory_access64(): M[0x101100a0] writes 0x97bafe84
Debug: 1526 2169 riscv-013.c:3071 log_memory_access64(): M[0x101100a4] writes 0x4472853e
Debug: 1527 2169 riscv-013.c:3071 log_memory_access64(): M[0x101100a8] writes 0x80826105
Debug: 1528 2169 riscv-013.c:3071 log_memory_access64(): M[0x101100ac] writes 0xd6067179
Debug: 1529 2169 riscv-013.c:3071 log_memory_access64(): M[0x101100b0] writes 0x1800d422
Debug: 1530 2169 riscv-013.c:3071 log_memory_access64(): M[0x101100b4] writes 0x00000797
Debug: 1531 2169 riscv-013.c:3071 log_memory_access64(): M[0x101100b8] writes 0xfd878793
Debug: 1532 2169 riscv-013.c:3071 log_memory_access64(): M[0x101100bc] writes 0xfef42223
Debug: 1533 2169 riscv-013.c:3071 log_memory_access64(): M[0x101100c0] writes 0xfe042623
Debug: 1534 2169 riscv-013.c:3071 log_memory_access64(): M[0x101100c4] writes 0x2783a839
Debug: 1535 2169 riscv-013.c:3071 log_memory_access64(): M[0x101100c8] writes 0x078afec4
Debug: 1536 2169 riscv-013.c:3071 log_memory_access64(): M[0x101100cc] writes 0x97a217c1
Debug: 1537 2169 riscv-013.c:3071 log_memory_access64(): M[0x101100d0] writes 0xfec42703
Debug: 1538 2169 riscv-013.c:3071 log_memory_access64(): M[0x101100d4] writes 0xfee7a623
Debug: 1539 2169 riscv-013.c:3071 log_memory_access64(): M[0x101100d8] writes 0xfec42783
Debug: 1540 2169 riscv-013.c:3071 log_memory_access64(): M[0x101100dc] writes 0x26230785
Debug: 1541 2169 riscv-013.c:3071 log_memory_access64(): M[0x101100e0] writes 0x2703fef4
Debug: 1542 2169 riscv-013.c:3071 log_memory_access64(): M[0x101100e4] writes 0x4789fec4
Debug: 1543 2169 riscv-013.c:3071 log_memory_access64(): M[0x101100e8] writes 0xfce7dfe3
Debug: 1544 2169 riscv-013.c:3071 log_memory_access64(): M[0x101100ec] writes 0xfe442783
Debug: 1545 2169 riscv-013.c:3071 log_memory_access64(): M[0x101100f0] writes 0x452945d1
Debug: 1546 2169 riscv-013.c:3071 log_memory_access64(): M[0x101100f4] writes 0x24239782
Debug: 1547 2169 riscv-013.c:3071 log_memory_access64(): M[0x101100f8] writes 0x4781fea4
Debug: 1548 2169 riscv-013.c:3071 log_memory_access64(): M[0x101100fc] writes 0x50b2853e
Debug: 1549 2169 riscv-013.c:3071 log_memory_access64(): M[0x10110100] writes 0x61455422
Debug: 1550 2169 batch.c:291 riscv_batch_run_from(): [riscv.cpu] Running batch of scans [0, 65)
Debug: 1551 2171 batch.c:264 log_batch(): 40b w 30005073 @04 -> ?; 1i
Debug: 1552 2171 batch.c:199 log_dmi_decoded(): write: 
Debug: 1553 2171 batch.c:264 log_batch(): 40b w 30102373 @04 -> ?; 1i
Debug: 1554 2171 batch.c:199 log_dmi_decoded(): write: 
Debug: 1555 2171 batch.c:264 log_batch(): 40b w 03d24385 @04 -> ?; 1i
Debug: 1556 2171 batch.c:199 log_dmi_decoded(): write: 
Debug: 1557 2171 batch.c:264 log_batch(): 40b w 007373b3 @04 -> ?; 1i
Debug: 1558 2171 batch.c:199 log_dmi_decoded(): write: 
Debug: 1559 2171 batch.c:264 log_batch(): 40b w 00701963 @04 -> ?; 1i
Debug: 1560 2171 batch.c:199 log_dmi_decoded(): write: 
Debug: 1561 2171 batch.c:264 log_batch(): 40b w 03ca4385 @04 -> ?; 1i
Debug: 1562 2171 batch.c:199 log_dmi_decoded(): write: 
Debug: 1563 2171 batch.c:264 log_batch(): 40b w 007373b3 @04 -> ?; 1i
Debug: 1564 2171 batch.c:199 log_dmi_decoded(): write: 
Debug: 1565 2171 batch.c:264 log_batch(): 40b w 00701363 @04 -> ?; 1i
Debug: 1566 2171 batch.c:199 log_dmi_decoded(): write: 
Debug: 1567 2171 batch.c:264 log_batch(): 40b w 5073a029 @04 -> ?; 1i
Debug: 1568 2171 batch.c:199 log_dmi_decoded(): write: 
Debug: 1569 2171 batch.c:264 log_batch(): 40b w 50733030 @04 -> ?; 1i
Debug: 1570 2171 batch.c:199 log_dmi_decoded(): write: 
Debug: 1571 2171 batch.c:264 log_batch(): 40b w 50733020 @04 -> ?; 1i
Debug: 1572 2171 batch.c:199 log_dmi_decoded(): write: 
Debug: 1573 2171 batch.c:264 log_batch(): 40b w 11973040 @04 -> ?; 1i
Debug: 1574 2171 batch.c:199 log_dmi_decoded(): write: 
Debug: 1575 2171 batch.c:264 log_batch(): 40b w 81930000 @04 -> ?; 1i
Debug: 1576 2171 batch.c:199 log_dmi_decoded(): write: 
Debug: 1577 2171 batch.c:264 log_batch(): 40b w 0117a4a1 @04 -> ?; 1i
Debug: 1578 2171 batch.c:199 log_dmi_decoded(): write: 
Debug: 1579 2171 batch.c:264 log_batch(): 40b w 01130000 @04 -> ?; 1i
Debug: 1580 2171 batch.c:199 log_dmi_decoded(): write: 
Debug: 1581 2171 batch.c:264 log_batch(): 40b w 03130d61 @04 -> ?; 1i
Debug: 1582 2171 batch.c:199 log_dmi_decoded(): write: 
Debug: 1583 2171 batch.c:264 log_batch(): 40b w 22f31680 @04 -> ?; 1i
Debug: 1584 2171 batch.c:199 log_dmi_decoded(): write: 
Debug: 1585 2171 batch.c:264 log_batch(): 40b w 0285f140 @04 -> ?; 1i
Debug: 1586 2171 batch.c:199 log_dmi_decoded(): write: 
Debug: 1587 2171 batch.c:264 log_batch(): 40b w 12fd911a @04 -> ?; 1i
Debug: 1588 2171 batch.c:199 log_dmi_decoded(): write: 
Debug: 1589 2171 batch.c:264 log_batch(): 40b w fe029ee3 @04 -> ?; 1i
Debug: 1590 2171 batch.c:199 log_dmi_decoded(): write: 
Debug: 1591 2171 batch.c:264 log_batch(): 40b w 00000297 @04 -> ?; 1i
Debug: 1592 2171 batch.c:199 log_dmi_decoded(): write: 
Debug: 1593 2171 batch.c:264 log_batch(): 40b w 22828293 @04 -> ?; 1i
Debug: 1594 2171 batch.c:199 log_dmi_decoded(): write: 
Debug: 1595 2171 batch.c:264 log_batch(): 40b w 00000317 @04 -> ?; 1i
Debug: 1596 2171 batch.c:199 log_dmi_decoded(): write: 
Debug: 1597 2171 batch.c:264 log_batch(): 40b w 22030313 @04 -> ?; 1i
Debug: 1598 2171 batch.c:199 log_dmi_decoded(): write: 
Debug: 1599 2172 batch.c:264 log_batch(): 40b w 0062d663 @04 -> ?; 1i
Debug: 1600 2172 batch.c:199 log_dmi_decoded(): write: 
Debug: 1601 2172 batch.c:264 log_batch(): 40b w 00028023 @04 -> ?; 1i
Debug: 1602 2172 batch.c:199 log_dmi_decoded(): write: 
Debug: 1603 2172 batch.c:264 log_batch(): 40b w bfdd0285 @04 -> ?; 1i
Debug: 1604 2172 batch.c:199 log_dmi_decoded(): write: 
Debug: 1605 2172 batch.c:264 log_batch(): 40b w 03c0006f @04 -> ?; 1i
Debug: 1606 2172 batch.c:199 log_dmi_decoded(): write: 
Debug: 1607 2172 batch.c:264 log_batch(): 40b w 0001a001 @04 -> ?; 1i
Debug: 1608 2172 batch.c:199 log_dmi_decoded(): write: 
Debug: 1609 2172 batch.c:264 log_batch(): 40b w 03136361 @04 -> ?; 1i
Debug: 1610 2172 batch.c:199 log_dmi_decoded(): write: 
Debug: 1611 2172 batch.c:264 log_batch(): 40b w 137d6a03 @04 -> ?; 1i
Debug: 1612 2172 batch.c:199 log_dmi_decoded(): write: 
Debug: 1613 2172 batch.c:264 log_batch(): 40b w fe031fe3 @04 -> ?; 1i
Debug: 1614 2172 batch.c:199 log_dmi_decoded(): write: 
Debug: 1615 2172 batch.c:264 log_batch(): 40b w 30500073 @04 -> ?; 1i
Debug: 1616 2172 batch.c:199 log_dmi_decoded(): write: 
Debug: 1617 2172 batch.c:264 log_batch(): 40b w 0000b7f5 @04 -> ?; 1i
Debug: 1618 2172 batch.c:199 log_dmi_decoded(): write: 
Debug: 1619 2172 batch.c:264 log_batch(): 40b w ce221101 @04 -> ?; 1i
Debug: 1620 2172 batch.c:199 log_dmi_decoded(): write: 
Debug: 1621 2172 batch.c:264 log_batch(): 40b w 26231000 @04 -> ?; 1i
Debug: 1622 2172 batch.c:199 log_dmi_decoded(): write: 
Debug: 1623 2172 batch.c:264 log_batch(): 40b w 2423fea4 @04 -> ?; 1i
Debug: 1624 2172 batch.c:199 log_dmi_decoded(): write: 
Debug: 1625 2172 batch.c:264 log_batch(): 40b w 2703feb4 @04 -> ?; 1i
Debug: 1626 2172 batch.c:199 log_dmi_decoded(): write: 
Debug: 1627 2172 batch.c:264 log_batch(): 40b w 2783fec4 @04 -> ?; 1i
Debug: 1628 2172 batch.c:199 log_dmi_decoded(): write: 
Debug: 1629 2172 batch.c:264 log_batch(): 40b w 97bafe84 @04 -> ?; 1i
Debug: 1630 2172 batch.c:199 log_dmi_decoded(): write: 
Debug: 1631 2172 batch.c:264 log_batch(): 40b w 4472853e @04 -> ?; 1i
Debug: 1632 2172 batch.c:199 log_dmi_decoded(): write: 
Debug: 1633 2172 batch.c:264 log_batch(): 40b w 80826105 @04 -> ?; 1i
Debug: 1634 2172 batch.c:199 log_dmi_decoded(): write: 
Debug: 1635 2172 batch.c:264 log_batch(): 40b w d6067179 @04 -> ?; 1i
Debug: 1636 2172 batch.c:199 log_dmi_decoded(): write: 
Debug: 1637 2172 batch.c:264 log_batch(): 40b w 1800d422 @04 -> ?; 1i
Debug: 1638 2172 batch.c:199 log_dmi_decoded(): write: 
Debug: 1639 2172 batch.c:264 log_batch(): 40b w 00000797 @04 -> ?; 1i
Debug: 1640 2172 batch.c:199 log_dmi_decoded(): write: 
Debug: 1641 2172 batch.c:264 log_batch(): 40b w fd878793 @04 -> ?; 1i
Debug: 1642 2172 batch.c:199 log_dmi_decoded(): write: 
Debug: 1643 2172 batch.c:264 log_batch(): 40b w fef42223 @04 -> ?; 1i
Debug: 1644 2172 batch.c:199 log_dmi_decoded(): write: 
Debug: 1645 2172 batch.c:264 log_batch(): 40b w fe042623 @04 -> ?; 1i
Debug: 1646 2172 batch.c:199 log_dmi_decoded(): write: 
Debug: 1647 2172 batch.c:264 log_batch(): 40b w 2783a839 @04 -> ?; 1i
Debug: 1648 2172 batch.c:199 log_dmi_decoded(): write: 
Debug: 1649 2172 batch.c:264 log_batch(): 40b w 078afec4 @04 -> ?; 1i
Debug: 1650 2172 batch.c:199 log_dmi_decoded(): write: 
Debug: 1651 2172 batch.c:264 log_batch(): 40b w 97a217c1 @04 -> ?; 1i
Debug: 1652 2172 batch.c:199 log_dmi_decoded(): write: 
Debug: 1653 2172 batch.c:264 log_batch(): 40b w fec42703 @04 -> ?; 1i
Debug: 1654 2172 batch.c:199 log_dmi_decoded(): write: 
Debug: 1655 2172 batch.c:264 log_batch(): 40b w fee7a623 @04 -> ?; 1i
Debug: 1656 2172 batch.c:199 log_dmi_decoded(): write: 
Debug: 1657 2172 batch.c:264 log_batch(): 40b w fec42783 @04 -> ?; 1i
Debug: 1658 2172 batch.c:199 log_dmi_decoded(): write: 
Debug: 1659 2172 batch.c:264 log_batch(): 40b w 26230785 @04 -> ?; 1i
Debug: 1660 2172 batch.c:199 log_dmi_decoded(): write: 
Debug: 1661 2172 batch.c:264 log_batch(): 40b w 2703fef4 @04 -> ?; 1i
Debug: 1662 2172 batch.c:199 log_dmi_decoded(): write: 
Debug: 1663 2172 batch.c:264 log_batch(): 40b w 4789fec4 @04 -> ?; 1i
Debug: 1664 2172 batch.c:199 log_dmi_decoded(): write: 
Debug: 1665 2172 batch.c:264 log_batch(): 40b w fce7dfe3 @04 -> ?; 1i
Debug: 1666 2172 batch.c:199 log_dmi_decoded(): write: 
Debug: 1667 2172 batch.c:264 log_batch(): 40b w fe442783 @04 -> ?; 1i
Debug: 1668 2172 batch.c:199 log_dmi_decoded(): write: 
Debug: 1669 2172 batch.c:264 log_batch(): 40b w 452945d1 @04 -> ?; 1i
Debug: 1670 2172 batch.c:199 log_dmi_decoded(): write: 
Debug: 1671 2172 batch.c:264 log_batch(): 40b w 24239782 @04 -> ?; 1i
Debug: 1672 2172 batch.c:199 log_dmi_decoded(): write: 
Debug: 1673 2172 batch.c:264 log_batch(): 40b w 4781fea4 @04 -> ?; 1i
Debug: 1674 2172 batch.c:199 log_dmi_decoded(): write: 
Debug: 1675 2172 batch.c:264 log_batch(): 40b w 50b2853e @04 -> ?; 1i
Debug: 1676 2172 batch.c:199 log_dmi_decoded(): write: 
Debug: 1677 2172 batch.c:264 log_batch(): 40b w 61455422 @04 -> ?; 1i
Debug: 1678 2172 batch.c:199 log_dmi_decoded(): write: 
Debug: 1679 2172 batch.c:255 log_batch(): 40b - 00000000 @00 -> + 61455422 @04; 1i
Debug: 1680 2172 batch.c:291 riscv_batch_run_from(): [riscv.cpu] Running batch of scans [0, 2)
Debug: 1681 2172 batch.c:255 log_batch(): 40b r 00000000 @16 -> + 00000000 @00; 1i
Debug: 1682 2172 batch.c:255 log_batch(): 40b - 00000000 @00 -> + 02000002 @16; 1i
Debug: 1683 2172 batch.c:199 log_dmi_decoded(): read: abstractcs=0x2000002 {datacount=2 progbufsize=2}
Debug: 1684 2172 riscv-013.c:4823 write_memory_progbuf_run_batch(): [riscv.cpu] Successfully written memory block M[0x10110004.. 0x10110104)
Debug: 1685 2172 batch.c:291 riscv_batch_run_from(): [riscv.cpu] Running batch of scans [0, 2)
Debug: 1686 2172 batch.c:255 log_batch(): 40b w 00000000 @18 -> + 00000000 @00; 1i
Debug: 1687 2172 batch.c:199 log_dmi_decoded(): write: 
Debug: 1688 2172 batch.c:255 log_batch(): 40b - 00000000 @00 -> + 00000000 @18; 1i
Debug: 1689 2172 program.c:33 riscv_program_write(): [riscv.cpu] progbuf[00] = DASM(0x0000100f)
Debug: 1690 2172 batch.c:291 riscv_batch_run_from(): [riscv.cpu] Running batch of scans [0, 2)
Debug: 1691 2173 batch.c:255 log_batch(): 40b w 0000100f @20 -> + 00000000 @00; 1i
Debug: 1692 2173 batch.c:199 log_dmi_decoded(): write: 
Debug: 1693 2173 batch.c:255 log_batch(): 40b - 00000000 @00 -> + 0000100f @20; 1i
Debug: 1694 2173 program.c:33 riscv_program_write(): [riscv.cpu] progbuf[01] = DASM(0x0330000f)
Debug: 1695 2173 batch.c:291 riscv_batch_run_from(): [riscv.cpu] Running batch of scans [0, 2)
Debug: 1696 2173 batch.c:255 log_batch(): 40b w 0330000f @21 -> + 00000000 @00; 1i
Debug: 1697 2173 batch.c:199 log_dmi_decoded(): write: 
Debug: 1698 2173 batch.c:255 log_batch(): 40b - 00000000 @00 -> + 0330000f @21; 1i
Debug: 1699 2173 riscv-013.c:664 riscv013_execute_abstract_command(): [riscv.cpu] access register=0x241000 {regno=0x1000 write=arg0 transfer=disabled postexec=enabled aarpostincrement=disabled aarsize=32bit}
Debug: 1700 2173 batch.c:291 riscv_batch_run_from(): [riscv.cpu] Running batch of scans [0, 3)
Debug: 1701 2173 batch.c:255 log_batch(): 40b w 00241000 @17 -> + 00000000 @00; 1i
Debug: 1702 2173 batch.c:199 log_dmi_decoded(): write: command=0x241000 {control=0x241000}
Debug: 1703 2173 batch.c:255 log_batch(): 40b r 00000000 @16 -> + 00241000 @17; 1i
Debug: 1704 2173 batch.c:255 log_batch(): 40b - 00000000 @00 -> + 02000002 @16; 1i
Debug: 1705 2173 batch.c:199 log_dmi_decoded(): read: abstractcs=0x2000002 {datacount=2 progbufsize=2}
Debug: 1706 2173 riscv-013.c:623 abstract_cmd_batch_check_and_clear_cmderr(): [riscv.cpu] abstractcs=0x2000002 {datacount=2 relaxedpriv=full_checks busy=ready progbufsize=2 cmderr=none}
Debug: 1707 2173 riscv-013.c:3003 execute_autofence(): [riscv.cpu] Successfully executed fence.i and fence rw, rw
Debug: 1708 2173 riscv-013.c:3462 log_mem_access_result(): [riscv.cpu] Succeeded to write memory via program buffer.
Debug: 1709 2173 riscv_reg.c:990 riscv_reg_get(): [riscv.cpu] Reading priv from target
Debug: 1710 2173 riscv_reg.c:985 riscv_reg_get(): [riscv.cpu] Read dcsr: 0x4003b0c3 (cached)
Debug: 1711 2173 riscv_reg.c:999 riscv_reg_get(): [riscv.cpu] Read priv: 0x3
Debug: 1712 2173 riscv_reg.c:990 riscv_reg_get(): [riscv.cpu] Reading priv from target
Debug: 1713 2173 riscv_reg.c:985 riscv_reg_get(): [riscv.cpu] Read dcsr: 0x4003b0c3 (cached)
Debug: 1714 2173 riscv_reg.c:999 riscv_reg_get(): [riscv.cpu] Read priv: 0x3
Debug: 1715 2173 riscv_reg.c:990 riscv_reg_get(): [riscv.cpu] Reading mstatus from target
Debug: 1716 2173 riscv-013.c:5083 riscv013_get_register(): [riscv.cpu] reading register mstatus
Debug: 1717 2173 riscv-013.c:1567 register_read_direct(): [riscv.cpu] Reading mstatus
Debug: 1718 2173 riscv-013.c:664 riscv013_execute_abstract_command(): [riscv.cpu] access register=0x220300 {regno=0x300 write=arg0 transfer=enabled postexec=disabled aarpostincrement=disabled aarsize=32bit}
Debug: 1719 2173 batch.c:291 riscv_batch_run_from(): [riscv.cpu] Running batch of scans [0, 3)
Debug: 1720 2174 batch.c:255 log_batch(): 40b w 00220300 @17 -> + 00000000 @00; 1i
Debug: 1721 2174 batch.c:199 log_dmi_decoded(): write: command=0x220300 {control=0x220300}
Debug: 1722 2174 batch.c:255 log_batch(): 40b r 00000000 @16 -> + 00220300 @17; 1i
Debug: 1723 2174 batch.c:255 log_batch(): 40b - 00000000 @00 -> + 02000002 @16; 1i
Debug: 1724 2174 batch.c:199 log_dmi_decoded(): read: abstractcs=0x2000002 {datacount=2 progbufsize=2}
Debug: 1725 2174 riscv-013.c:623 abstract_cmd_batch_check_and_clear_cmderr(): [riscv.cpu] abstractcs=0x2000002 {datacount=2 relaxedpriv=full_checks busy=ready progbufsize=2 cmderr=none}
Debug: 1726 2174 batch.c:291 riscv_batch_run_from(): [riscv.cpu] Running batch of scans [0, 2)
Debug: 1727 2174 batch.c:255 log_batch(): 40b r 00000000 @04 -> + 00000000 @00; 1i
Debug: 1728 2174 batch.c:255 log_batch(): 40b - 00000000 @00 -> + 00001800 @04; 1i
Debug: 1729 2174 batch.c:199 log_dmi_decoded(): read: 
Debug: 1730 2174 riscv-013.c:1586 register_read_direct(): [riscv.cpu] mstatus = 0x1800
Debug: 1731 2174 riscv_reg.c:999 riscv_reg_get(): [riscv.cpu] Read mstatus: 0x1800
Debug: 1732 2174 riscv.c:2999 riscv_effective_privilege_mode(): [riscv.cpu] Effective mode=3; v=0
Debug: 1733 2174 riscv.c:3074 riscv_mmu(): [riscv.cpu] SATP/MMU ignored in Machine mode.
Debug: 1734 2174 riscv-013.c:4924 write_memory_progbuf(): [riscv.cpu] writing 1 words of 2 bytes to 0x10110104
Debug: 1735 2174 riscv-013_reg.c:382 riscv013_reg_save(): [riscv.cpu] Saving fp
Debug: 1736 2174 riscv_reg.c:985 riscv_reg_get(): [riscv.cpu] Read fp: 0x10110278 (cached)
Debug: 1737 2174 riscv-013_reg.c:382 riscv013_reg_save(): [riscv.cpu] Saving s1
Debug: 1738 2174 riscv_reg.c:985 riscv_reg_get(): [riscv.cpu] Read s1: 0x0 (cached)
Debug: 1739 2174 program.c:33 riscv_program_write(): [riscv.cpu] progbuf[00] = DASM(0x00941023)
Debug: 1740 2174 batch.c:291 riscv_batch_run_from(): [riscv.cpu] Running batch of scans [0, 2)
Debug: 1741 2174 batch.c:255 log_batch(): 40b w 00941023 @20 -> + 00000000 @00; 1i
Debug: 1742 2174 batch.c:199 log_dmi_decoded(): write: 
Debug: 1743 2174 batch.c:255 log_batch(): 40b - 00000000 @00 -> + 00941023 @20; 1i
Debug: 1744 2174 program.c:33 riscv_program_write(): [riscv.cpu] progbuf[01] = DASM(0x00240413)
Debug: 1745 2174 batch.c:291 riscv_batch_run_from(): [riscv.cpu] Running batch of scans [0, 2)
Debug: 1746 2174 batch.c:255 log_batch(): 40b w 00240413 @21 -> + 00000000 @00; 1i
Debug: 1747 2174 batch.c:199 log_dmi_decoded(): write: 
Debug: 1748 2174 batch.c:255 log_batch(): 40b - 00000000 @00 -> + 00240413 @21; 1i
Debug: 1749 2174 riscv-013.c:1538 register_write_direct(): [riscv.cpu] Writing 0x10110104 to fp
Debug: 1750 2174 riscv-013.c:901 register_write_abstract(): [riscv.cpu] access register=0x231008 {regno=0x1008 write=register transfer=enabled postexec=disabled aarpostincrement=disabled aarsize=32bit}
Debug: 1751 2174 batch.c:291 riscv_batch_run_from(): [riscv.cpu] Running batch of scans [0, 4)
Debug: 1752 2174 batch.c:255 log_batch(): 40b w 10110104 @04 -> + 00000000 @00; 1i
Debug: 1753 2174 batch.c:199 log_dmi_decoded(): write: 
Debug: 1754 2174 batch.c:255 log_batch(): 40b w 00231008 @17 -> + 10110104 @04; 1i
Debug: 1755 2174 batch.c:199 log_dmi_decoded(): write: command=0x231008 {control=0x231008}
Debug: 1756 2174 batch.c:255 log_batch(): 40b r 00000000 @16 -> + 00231008 @17; 1i
Debug: 1757 2174 batch.c:255 log_batch(): 40b - 00000000 @00 -> + 02000002 @16; 1i
Debug: 1758 2174 batch.c:199 log_dmi_decoded(): read: abstractcs=0x2000002 {datacount=2 progbufsize=2}
Debug: 1759 2174 riscv-013.c:623 abstract_cmd_batch_check_and_clear_cmderr(): [riscv.cpu] abstractcs=0x2000002 {datacount=2 relaxedpriv=full_checks busy=ready progbufsize=2 cmderr=none}
Debug: 1760 2174 riscv-013.c:1557 register_write_direct(): [riscv.cpu] fp <- 0x10110104
Debug: 1761 2174 batch.c:291 riscv_batch_run_from(): [riscv.cpu] Running batch of scans [0, 2)
Debug: 1762 2175 batch.c:255 log_batch(): 40b w 00008082 @04 -> + 00000000 @00; 1i
Debug: 1763 2175 batch.c:199 log_dmi_decoded(): write: 
Debug: 1764 2175 batch.c:255 log_batch(): 40b - 00000000 @00 -> + 00008082 @04; 1i
Debug: 1765 2175 riscv-013.c:664 riscv013_execute_abstract_command(): [riscv.cpu] access register=0x271009 {regno=0x1009 write=register transfer=enabled postexec=enabled aarpostincrement=disabled aarsize=32bit}
Debug: 1766 2175 batch.c:291 riscv_batch_run_from(): [riscv.cpu] Running batch of scans [0, 3)
Debug: 1767 2175 batch.c:255 log_batch(): 40b w 00271009 @17 -> + 00000000 @00; 1i
Debug: 1768 2175 batch.c:199 log_dmi_decoded(): write: command=0x271009 {control=0x271009}
Debug: 1769 2175 batch.c:255 log_batch(): 40b r 00000000 @16 -> + 00271009 @17; 1i
Debug: 1770 2175 batch.c:255 log_batch(): 40b - 00000000 @00 -> + 02000002 @16; 1i
Debug: 1771 2175 batch.c:199 log_dmi_decoded(): read: abstractcs=0x2000002 {datacount=2 progbufsize=2}
Debug: 1772 2175 riscv-013.c:623 abstract_cmd_batch_check_and_clear_cmderr(): [riscv.cpu] abstractcs=0x2000002 {datacount=2 relaxedpriv=full_checks busy=ready progbufsize=2 cmderr=none}
Debug: 1773 2175 riscv-013.c:3071 log_memory_access64(): M[0x10110104] writes 0x8082
Debug: 1774 2175 batch.c:291 riscv_batch_run_from(): [riscv.cpu] Running batch of scans [0, 2)
Debug: 1775 2175 batch.c:255 log_batch(): 40b w 00000001 @18 -> + 00000000 @00; 1i
Debug: 1776 2175 batch.c:199 log_dmi_decoded(): write: 
Debug: 1777 2175 batch.c:255 log_batch(): 40b - 00000000 @00 -> + 00000001 @18; 1i
Debug: 1778 2175 batch.c:291 riscv_batch_run_from(): [riscv.cpu] Running batch of scans [0, 2)
Debug: 1779 2175 batch.c:255 log_batch(): 40b w 00000000 @18 -> + 00000000 @00; 1i
Debug: 1780 2175 batch.c:199 log_dmi_decoded(): write: 
Debug: 1781 2175 batch.c:255 log_batch(): 40b - 00000000 @00 -> + 00000000 @18; 1i
Debug: 1782 2175 program.c:33 riscv_program_write(): [riscv.cpu] progbuf[00] = DASM(0x0000100f)
Debug: 1783 2175 batch.c:291 riscv_batch_run_from(): [riscv.cpu] Running batch of scans [0, 2)
Debug: 1784 2175 batch.c:255 log_batch(): 40b w 0000100f @20 -> + 00000000 @00; 1i
Debug: 1785 2175 batch.c:199 log_dmi_decoded(): write: 
Debug: 1786 2175 batch.c:255 log_batch(): 40b - 00000000 @00 -> + 0000100f @20; 1i
Debug: 1787 2175 program.c:33 riscv_program_write(): [riscv.cpu] progbuf[01] = DASM(0x0330000f)
Debug: 1788 2175 batch.c:291 riscv_batch_run_from(): [riscv.cpu] Running batch of scans [0, 2)
Debug: 1789 2175 batch.c:255 log_batch(): 40b w 0330000f @21 -> + 00000000 @00; 1i
Debug: 1790 2175 batch.c:199 log_dmi_decoded(): write: 
Debug: 1791 2175 batch.c:255 log_batch(): 40b - 00000000 @00 -> + 0330000f @21; 1i
Debug: 1792 2175 riscv-013.c:664 riscv013_execute_abstract_command(): [riscv.cpu] access register=0x241000 {regno=0x1000 write=arg0 transfer=disabled postexec=enabled aarpostincrement=disabled aarsize=32bit}
Debug: 1793 2175 batch.c:291 riscv_batch_run_from(): [riscv.cpu] Running batch of scans [0, 3)
Debug: 1794 2175 batch.c:255 log_batch(): 40b w 00241000 @17 -> + 00000000 @00; 1i
Debug: 1795 2175 batch.c:199 log_dmi_decoded(): write: command=0x241000 {control=0x241000}
Debug: 1796 2175 batch.c:255 log_batch(): 40b r 00000000 @16 -> + 00241000 @17; 1i
Debug: 1797 2175 batch.c:255 log_batch(): 40b - 00000000 @00 -> + 02000002 @16; 1i
Debug: 1798 2175 batch.c:199 log_dmi_decoded(): read: abstractcs=0x2000002 {datacount=2 progbufsize=2}
Debug: 1799 2175 riscv-013.c:623 abstract_cmd_batch_check_and_clear_cmderr(): [riscv.cpu] abstractcs=0x2000002 {datacount=2 relaxedpriv=full_checks busy=ready progbufsize=2 cmderr=none}
Debug: 1800 2175 riscv-013.c:3003 execute_autofence(): [riscv.cpu] Successfully executed fence.i and fence rw, rw
Debug: 1801 2175 riscv-013.c:3462 log_mem_access_result(): [riscv.cpu] Succeeded to write memory via program buffer.
Debug: 1802 2175 gdb_server.c:416 gdb_log_incoming_packet(): [riscv.cpu] {1} received packet: X10110110,16c:<binary-data-360-bytes>
Debug: 1803 2175 gdb_server.c:441 gdb_log_outgoing_packet(): [riscv.cpu] {1} sending packet: $OK#9a
Debug: 1804 2175 gdb_server.c:1730 gdb_write_memory_binary_packet(): addr: 0x10110110, len: 0x0000016c
Debug: 1805 2175 target.c:2350 target_write_buffer(): writing buffer of 364 byte at 0x10110110
Debug: 1806 2175 riscv_reg.c:990 riscv_reg_get(): [riscv.cpu] Reading priv from target
Debug: 1807 2175 riscv_reg.c:985 riscv_reg_get(): [riscv.cpu] Read dcsr: 0x4003b0c3 (cached)
Debug: 1808 2175 riscv_reg.c:999 riscv_reg_get(): [riscv.cpu] Read priv: 0x3
Debug: 1809 2175 riscv_reg.c:990 riscv_reg_get(): [riscv.cpu] Reading priv from target
Debug: 1810 2175 riscv_reg.c:985 riscv_reg_get(): [riscv.cpu] Read dcsr: 0x4003b0c3 (cached)
Debug: 1811 2175 riscv_reg.c:999 riscv_reg_get(): [riscv.cpu] Read priv: 0x3
Debug: 1812 2175 riscv_reg.c:990 riscv_reg_get(): [riscv.cpu] Reading mstatus from target
Debug: 1813 2175 riscv-013.c:5083 riscv013_get_register(): [riscv.cpu] reading register mstatus
Debug: 1814 2175 riscv-013.c:1567 register_read_direct(): [riscv.cpu] Reading mstatus
Debug: 1815 2175 riscv-013.c:664 riscv013_execute_abstract_command(): [riscv.cpu] access register=0x220300 {regno=0x300 write=arg0 transfer=enabled postexec=disabled aarpostincrement=disabled aarsize=32bit}
Debug: 1816 2175 batch.c:291 riscv_batch_run_from(): [riscv.cpu] Running batch of scans [0, 3)
Debug: 1817 2176 batch.c:255 log_batch(): 40b w 00220300 @17 -> + 00000000 @00; 1i
Debug: 1818 2176 batch.c:199 log_dmi_decoded(): write: command=0x220300 {control=0x220300}
Debug: 1819 2176 batch.c:255 log_batch(): 40b r 00000000 @16 -> + 00220300 @17; 1i
Debug: 1820 2176 batch.c:255 log_batch(): 40b - 00000000 @00 -> + 02000002 @16; 1i
Debug: 1821 2176 batch.c:199 log_dmi_decoded(): read: abstractcs=0x2000002 {datacount=2 progbufsize=2}
Debug: 1822 2176 riscv-013.c:623 abstract_cmd_batch_check_and_clear_cmderr(): [riscv.cpu] abstractcs=0x2000002 {datacount=2 relaxedpriv=full_checks busy=ready progbufsize=2 cmderr=none}
Debug: 1823 2176 batch.c:291 riscv_batch_run_from(): [riscv.cpu] Running batch of scans [0, 2)
Debug: 1824 2176 batch.c:255 log_batch(): 40b r 00000000 @04 -> + 00000000 @00; 1i
Debug: 1825 2176 batch.c:255 log_batch(): 40b - 00000000 @00 -> + 00001800 @04; 1i
Debug: 1826 2176 batch.c:199 log_dmi_decoded(): read: 
Debug: 1827 2176 riscv-013.c:1586 register_read_direct(): [riscv.cpu] mstatus = 0x1800
Debug: 1828 2176 riscv_reg.c:999 riscv_reg_get(): [riscv.cpu] Read mstatus: 0x1800
Debug: 1829 2176 riscv.c:2999 riscv_effective_privilege_mode(): [riscv.cpu] Effective mode=3; v=0
Debug: 1830 2176 riscv.c:3074 riscv_mmu(): [riscv.cpu] SATP/MMU ignored in Machine mode.
Debug: 1831 2176 riscv-013.c:4924 write_memory_progbuf(): [riscv.cpu] writing 91 words of 4 bytes to 0x10110110
Debug: 1832 2176 riscv-013_reg.c:382 riscv013_reg_save(): [riscv.cpu] Saving fp
Debug: 1833 2176 riscv_reg.c:985 riscv_reg_get(): [riscv.cpu] Read fp: 0x10110278 (cached)
Debug: 1834 2176 riscv-013_reg.c:382 riscv013_reg_save(): [riscv.cpu] Saving s1
Debug: 1835 2176 riscv_reg.c:985 riscv_reg_get(): [riscv.cpu] Read s1: 0x0 (cached)
Debug: 1836 2176 program.c:33 riscv_program_write(): [riscv.cpu] progbuf[00] = DASM(0x00942023)
Debug: 1837 2176 batch.c:291 riscv_batch_run_from(): [riscv.cpu] Running batch of scans [0, 2)
Debug: 1838 2176 batch.c:255 log_batch(): 40b w 00942023 @20 -> + 00000000 @00; 1i
Debug: 1839 2176 batch.c:199 log_dmi_decoded(): write: 
Debug: 1840 2176 batch.c:255 log_batch(): 40b - 00000000 @00 -> + 00942023 @20; 1i
Debug: 1841 2176 program.c:33 riscv_program_write(): [riscv.cpu] progbuf[01] = DASM(0x00440413)
Debug: 1842 2176 batch.c:291 riscv_batch_run_from(): [riscv.cpu] Running batch of scans [0, 2)
Debug: 1843 2176 batch.c:255 log_batch(): 40b w 00440413 @21 -> + 00000000 @00; 1i
Debug: 1844 2176 batch.c:199 log_dmi_decoded(): write: 
Debug: 1845 2176 batch.c:255 log_batch(): 40b - 00000000 @00 -> + 00440413 @21; 1i
Debug: 1846 2176 riscv-013.c:1538 register_write_direct(): [riscv.cpu] Writing 0x10110110 to fp
Debug: 1847 2176 riscv-013.c:901 register_write_abstract(): [riscv.cpu] access register=0x231008 {regno=0x1008 write=register transfer=enabled postexec=disabled aarpostincrement=disabled aarsize=32bit}
Debug: 1848 2176 batch.c:291 riscv_batch_run_from(): [riscv.cpu] Running batch of scans [0, 4)
Debug: 1849 2176 batch.c:255 log_batch(): 40b w 10110110 @04 -> + 00000000 @00; 1i
Debug: 1850 2176 batch.c:199 log_dmi_decoded(): write: 
Debug: 1851 2176 batch.c:255 log_batch(): 40b w 00231008 @17 -> + 10110110 @04; 1i
Debug: 1852 2176 batch.c:199 log_dmi_decoded(): write: command=0x231008 {control=0x231008}
Debug: 1853 2176 batch.c:255 log_batch(): 40b r 00000000 @16 -> + 00231008 @17; 1i
Debug: 1854 2176 batch.c:255 log_batch(): 40b - 00000000 @00 -> + 02000002 @16; 1i
Debug: 1855 2176 batch.c:199 log_dmi_decoded(): read: abstractcs=0x2000002 {datacount=2 progbufsize=2}
Debug: 1856 2176 riscv-013.c:623 abstract_cmd_batch_check_and_clear_cmderr(): [riscv.cpu] abstractcs=0x2000002 {datacount=2 relaxedpriv=full_checks busy=ready progbufsize=2 cmderr=none}
Debug: 1857 2176 riscv-013.c:1557 register_write_direct(): [riscv.cpu] fp <- 0x10110110
Debug: 1858 2176 batch.c:291 riscv_batch_run_from(): [riscv.cpu] Running batch of scans [0, 2)
Debug: 1859 2176 batch.c:255 log_batch(): 40b w 22446688 @04 -> + 00000000 @00; 1i
Debug: 1860 2176 batch.c:199 log_dmi_decoded(): write: 
Debug: 1861 2176 batch.c:255 log_batch(): 40b - 00000000 @00 -> + 22446688 @04; 1i
Debug: 1862 2176 riscv-013.c:664 riscv013_execute_abstract_command(): [riscv.cpu] access register=0x271009 {regno=0x1009 write=register transfer=enabled postexec=enabled aarpostincrement=disabled aarsize=32bit}
Debug: 1863 2176 batch.c:291 riscv_batch_run_from(): [riscv.cpu] Running batch of scans [0, 3)
Debug: 1864 2177 batch.c:255 log_batch(): 40b w 00271009 @17 -> + 00000000 @00; 1i
Debug: 1865 2177 batch.c:199 log_dmi_decoded(): write: command=0x271009 {control=0x271009}
Debug: 1866 2177 batch.c:255 log_batch(): 40b r 00000000 @16 -> + 00271009 @17; 1i
Debug: 1867 2177 batch.c:255 log_batch(): 40b - 00000000 @00 -> + 02000002 @16; 1i
Debug: 1868 2177 batch.c:199 log_dmi_decoded(): read: abstractcs=0x2000002 {datacount=2 progbufsize=2}
Debug: 1869 2177 riscv-013.c:623 abstract_cmd_batch_check_and_clear_cmderr(): [riscv.cpu] abstractcs=0x2000002 {datacount=2 relaxedpriv=full_checks busy=ready progbufsize=2 cmderr=none}
Debug: 1870 2177 riscv-013.c:3071 log_memory_access64(): M[0x10110110] writes 0x22446688
Debug: 1871 2177 batch.c:291 riscv_batch_run_from(): [riscv.cpu] Running batch of scans [0, 2)
Debug: 1872 2177 batch.c:255 log_batch(): 40b w 00000001 @18 -> + 00000000 @00; 1i
Debug: 1873 2177 batch.c:199 log_dmi_decoded(): write: 
Debug: 1874 2177 batch.c:255 log_batch(): 40b - 00000000 @00 -> + 00000001 @18; 1i
Debug: 1875 2177 riscv-013.c:3071 log_memory_access64(): M[0x10110114] writes 0x22446688
Debug: 1876 2177 riscv-013.c:3071 log_memory_access64(): M[0x10110118] writes 0x22446688
Debug: 1877 2177 riscv-013.c:3071 log_memory_access64(): M[0x1011011c] writes 0x22446688
Debug: 1878 2177 riscv-013.c:3071 log_memory_access64(): M[0x10110120] writes 0x22446688
Debug: 1879 2177 riscv-013.c:3071 log_memory_access64(): M[0x10110124] writes 0x22446688
Debug: 1880 2177 riscv-013.c:3071 log_memory_access64(): M[0x10110128] writes 0x22446688
Debug: 1881 2177 riscv-013.c:3071 log_memory_access64(): M[0x1011012c] writes 0x22446688
Debug: 1882 2177 riscv-013.c:3071 log_memory_access64(): M[0x10110130] writes 0x22446688
Debug: 1883 2177 riscv-013.c:3071 log_memory_access64(): M[0x10110134] writes 0x22446688
Debug: 1884 2177 riscv-013.c:3071 log_memory_access64(): M[0x10110138] writes 0x22446688
Debug: 1885 2177 riscv-013.c:3071 log_memory_access64(): M[0x1011013c] writes 0x22446688
Debug: 1886 2177 riscv-013.c:3071 log_memory_access64(): M[0x10110140] writes 0x22446688
Debug: 1887 2177 riscv-013.c:3071 log_memory_access64(): M[0x10110144] writes 0x22446688
Debug: 1888 2177 riscv-013.c:3071 log_memory_access64(): M[0x10110148] writes 0x22446688
Debug: 1889 2177 riscv-013.c:3071 log_memory_access64(): M[0x1011014c] writes 0x22446688
Debug: 1890 2177 riscv-013.c:3071 log_memory_access64(): M[0x10110150] writes 0x22446688
Debug: 1891 2177 riscv-013.c:3071 log_memory_access64(): M[0x10110154] writes 0x22446688
Debug: 1892 2177 riscv-013.c:3071 log_memory_access64(): M[0x10110158] writes 0x22446688
Debug: 1893 2177 riscv-013.c:3071 log_memory_access64(): M[0x1011015c] writes 0x22446688
Debug: 1894 2177 riscv-013.c:3071 log_memory_access64(): M[0x10110160] writes 0x22446688
Debug: 1895 2177 riscv-013.c:3071 log_memory_access64(): M[0x10110164] writes 0x22446688
Debug: 1896 2177 riscv-013.c:3071 log_memory_access64(): M[0x10110168] writes 0x22446688
Debug: 1897 2177 riscv-013.c:3071 log_memory_access64(): M[0x1011016c] writes 0x22446688
Debug: 1898 2177 riscv-013.c:3071 log_memory_access64(): M[0x10110170] writes 0x22446688
Debug: 1899 2177 riscv-013.c:3071 log_memory_access64(): M[0x10110174] writes 0x22446688
Debug: 1900 2177 riscv-013.c:3071 log_memory_access64(): M[0x10110178] writes 0x22446688
Debug: 1901 2177 riscv-013.c:3071 log_memory_access64(): M[0x1011017c] writes 0x22446688
Debug: 1902 2177 riscv-013.c:3071 log_memory_access64(): M[0x10110180] writes 0x22446688
Debug: 1903 2177 riscv-013.c:3071 log_memory_access64(): M[0x10110184] writes 0x22446688
Debug: 1904 2177 riscv-013.c:3071 log_memory_access64(): M[0x10110188] writes 0x22446688
Debug: 1905 2177 riscv-013.c:3071 log_memory_access64(): M[0x1011018c] writes 0x22446688
Debug: 1906 2177 riscv-013.c:3071 log_memory_access64(): M[0x10110190] writes 0x22446688
Debug: 1907 2177 riscv-013.c:3071 log_memory_access64(): M[0x10110194] writes 0x22446688
Debug: 1908 2177 riscv-013.c:3071 log_memory_access64(): M[0x10110198] writes 0x22446688
Debug: 1909 2177 riscv-013.c:3071 log_memory_access64(): M[0x1011019c] writes 0x22446688
Debug: 1910 2177 riscv-013.c:3071 log_memory_access64(): M[0x101101a0] writes 0x22446688
Debug: 1911 2177 riscv-013.c:3071 log_memory_access64(): M[0x101101a4] writes 0x22446688
Debug: 1912 2177 riscv-013.c:3071 log_memory_access64(): M[0x101101a8] writes 0x22446688
Debug: 1913 2177 riscv-013.c:3071 log_memory_access64(): M[0x101101ac] writes 0x22446688
Debug: 1914 2177 riscv-013.c:3071 log_memory_access64(): M[0x101101b0] writes 0x22446688
Debug: 1915 2177 riscv-013.c:3071 log_memory_access64(): M[0x101101b4] writes 0x22446688
Debug: 1916 2177 riscv-013.c:3071 log_memory_access64(): M[0x101101b8] writes 0x22446688
Debug: 1917 2177 riscv-013.c:3071 log_memory_access64(): M[0x101101bc] writes 0x22446688
Debug: 1918 2177 riscv-013.c:3071 log_memory_access64(): M[0x101101c0] writes 0x22446688
Debug: 1919 2177 riscv-013.c:3071 log_memory_access64(): M[0x101101c4] writes 0x22446688
Debug: 1920 2177 riscv-013.c:3071 log_memory_access64(): M[0x101101c8] writes 0x22446688
Debug: 1921 2177 riscv-013.c:3071 log_memory_access64(): M[0x101101cc] writes 0x22446688
Debug: 1922 2177 riscv-013.c:3071 log_memory_access64(): M[0x101101d0] writes 0x22446688
Debug: 1923 2177 riscv-013.c:3071 log_memory_access64(): M[0x101101d4] writes 0x22446688
Debug: 1924 2177 riscv-013.c:3071 log_memory_access64(): M[0x101101d8] writes 0x22446688
Debug: 1925 2177 riscv-013.c:3071 log_memory_access64(): M[0x101101dc] writes 0x22446688
Debug: 1926 2177 riscv-013.c:3071 log_memory_access64(): M[0x101101e0] writes 0x22446688
Debug: 1927 2177 riscv-013.c:3071 log_memory_access64(): M[0x101101e4] writes 0x22446688
Debug: 1928 2177 riscv-013.c:3071 log_memory_access64(): M[0x101101e8] writes 0x22446688
Debug: 1929 2177 riscv-013.c:3071 log_memory_access64(): M[0x101101ec] writes 0x22446688
Debug: 1930 2177 riscv-013.c:3071 log_memory_access64(): M[0x101101f0] writes 0x22446688
Debug: 1931 2177 riscv-013.c:3071 log_memory_access64(): M[0x101101f4] writes 0x22446688
Debug: 1932 2177 riscv-013.c:3071 log_memory_access64(): M[0x101101f8] writes 0x22446688
Debug: 1933 2177 riscv-013.c:3071 log_memory_access64(): M[0x101101fc] writes 0x22446688
Debug: 1934 2177 riscv-013.c:3071 log_memory_access64(): M[0x10110200] writes 0x22446688
Debug: 1935 2177 riscv-013.c:3071 log_memory_access64(): M[0x10110204] writes 0x22446688
Debug: 1936 2177 riscv-013.c:3071 log_memory_access64(): M[0x10110208] writes 0x22446688
Debug: 1937 2177 riscv-013.c:3071 log_memory_access64(): M[0x1011020c] writes 0x22446688
Debug: 1938 2177 riscv-013.c:3071 log_memory_access64(): M[0x10110210] writes 0x22446688
Debug: 1939 2177 riscv-013.c:3071 log_memory_access64(): M[0x10110214] writes 0x22446688
Debug: 1940 2177 riscv-013.c:3071 log_memory_access64(): M[0x10110218] writes 0x22446688
Debug: 1941 2177 riscv-013.c:3071 log_memory_access64(): M[0x1011021c] writes 0x22446688
Debug: 1942 2177 riscv-013.c:3071 log_memory_access64(): M[0x10110220] writes 0x22446688
Debug: 1943 2177 riscv-013.c:3071 log_memory_access64(): M[0x10110224] writes 0x22446688
Debug: 1944 2177 riscv-013.c:3071 log_memory_access64(): M[0x10110228] writes 0x22446688
Debug: 1945 2177 riscv-013.c:3071 log_memory_access64(): M[0x1011022c] writes 0x22446688
Debug: 1946 2177 riscv-013.c:3071 log_memory_access64(): M[0x10110230] writes 0x22446688
Debug: 1947 2177 riscv-013.c:3071 log_memory_access64(): M[0x10110234] writes 0x22446688
Debug: 1948 2177 riscv-013.c:3071 log_memory_access64(): M[0x10110238] writes 0x22446688
Debug: 1949 2177 riscv-013.c:3071 log_memory_access64(): M[0x1011023c] writes 0x22446688
Debug: 1950 2177 riscv-013.c:3071 log_memory_access64(): M[0x10110240] writes 0x22446688
Debug: 1951 2177 riscv-013.c:3071 log_memory_access64(): M[0x10110244] writes 0x22446688
Debug: 1952 2177 riscv-013.c:3071 log_memory_access64(): M[0x10110248] writes 0x22446688
Debug: 1953 2177 riscv-013.c:3071 log_memory_access64(): M[0x1011024c] writes 0x22446688
Debug: 1954 2177 riscv-013.c:3071 log_memory_access64(): M[0x10110250] writes 0x22446688
Debug: 1955 2177 riscv-013.c:3071 log_memory_access64(): M[0x10110254] writes 0x22446688
Debug: 1956 2177 riscv-013.c:3071 log_memory_access64(): M[0x10110258] writes 0x22446688
Debug: 1957 2177 riscv-013.c:3071 log_memory_access64(): M[0x1011025c] writes 0x22446688
Debug: 1958 2177 riscv-013.c:3071 log_memory_access64(): M[0x10110260] writes 0x22446688
Debug: 1959 2177 riscv-013.c:3071 log_memory_access64(): M[0x10110264] writes 0x22446688
Debug: 1960 2177 riscv-013.c:3071 log_memory_access64(): M[0x10110268] writes 0x22446688
Debug: 1961 2177 riscv-013.c:3071 log_memory_access64(): M[0x1011026c] writes 0x22446688
Debug: 1962 2177 riscv-013.c:3071 log_memory_access64(): M[0x10110270] writes 0x22446688
Debug: 1963 2177 riscv-013.c:3071 log_memory_access64(): M[0x10110274] writes 0x22446688
Debug: 1964 2177 riscv-013.c:3071 log_memory_access64(): M[0x10110278] writes 0x00000000
Debug: 1965 2177 batch.c:291 riscv_batch_run_from(): [riscv.cpu] Running batch of scans [0, 91)
Debug: 1966 2180 batch.c:264 log_batch(): 40b w 22446688 @04 -> ?; 1i
Debug: 1967 2180 batch.c:199 log_dmi_decoded(): write: 
Debug: 1968 2180 batch.c:264 log_batch(): 40b w 22446688 @04 -> ?; 1i
Debug: 1969 2180 batch.c:199 log_dmi_decoded(): write: 
Debug: 1970 2180 batch.c:264 log_batch(): 40b w 22446688 @04 -> ?; 1i
Debug: 1971 2180 batch.c:199 log_dmi_decoded(): write: 
Debug: 1972 2180 batch.c:264 log_batch(): 40b w 22446688 @04 -> ?; 1i
Debug: 1973 2180 batch.c:199 log_dmi_decoded(): write: 
Debug: 1974 2180 batch.c:264 log_batch(): 40b w 22446688 @04 -> ?; 1i
Debug: 1975 2180 batch.c:199 log_dmi_decoded(): write: 
Debug: 1976 2180 batch.c:264 log_batch(): 40b w 22446688 @04 -> ?; 1i
Debug: 1977 2180 batch.c:199 log_dmi_decoded(): write: 
Debug: 1978 2180 batch.c:264 log_batch(): 40b w 22446688 @04 -> ?; 1i
Debug: 1979 2180 batch.c:199 log_dmi_decoded(): write: 
Debug: 1980 2180 batch.c:264 log_batch(): 40b w 22446688 @04 -> ?; 1i
Debug: 1981 2180 batch.c:199 log_dmi_decoded(): write: 
Debug: 1982 2180 batch.c:264 log_batch(): 40b w 22446688 @04 -> ?; 1i
Debug: 1983 2180 batch.c:199 log_dmi_decoded(): write: 
Debug: 1984 2180 batch.c:264 log_batch(): 40b w 22446688 @04 -> ?; 1i
Debug: 1985 2180 batch.c:199 log_dmi_decoded(): write: 
Debug: 1986 2180 batch.c:264 log_batch(): 40b w 22446688 @04 -> ?; 1i
Debug: 1987 2180 batch.c:199 log_dmi_decoded(): write: 
Debug: 1988 2180 batch.c:264 log_batch(): 40b w 22446688 @04 -> ?; 1i
Debug: 1989 2180 batch.c:199 log_dmi_decoded(): write: 
Debug: 1990 2180 batch.c:264 log_batch(): 40b w 22446688 @04 -> ?; 1i
Debug: 1991 2180 batch.c:199 log_dmi_decoded(): write: 
Debug: 1992 2180 batch.c:264 log_batch(): 40b w 22446688 @04 -> ?; 1i
Debug: 1993 2180 batch.c:199 log_dmi_decoded(): write: 
Debug: 1994 2180 batch.c:264 log_batch(): 40b w 22446688 @04 -> ?; 1i
Debug: 1995 2180 batch.c:199 log_dmi_decoded(): write: 
Debug: 1996 2180 batch.c:264 log_batch(): 40b w 22446688 @04 -> ?; 1i
Debug: 1997 2180 batch.c:199 log_dmi_decoded(): write: 
Debug: 1998 2180 batch.c:264 log_batch(): 40b w 22446688 @04 -> ?; 1i
Debug: 1999 2180 batch.c:199 log_dmi_decoded(): write: 
Debug: 2000 2180 batch.c:264 log_batch(): 40b w 22446688 @04 -> ?; 1i
Debug: 2001 2180 batch.c:199 log_dmi_decoded(): write: 
Debug: 2002 2180 batch.c:264 log_batch(): 40b w 22446688 @04 -> ?; 1i
Debug: 2003 2180 batch.c:199 log_dmi_decoded(): write: 
Debug: 2004 2180 batch.c:264 log_batch(): 40b w 22446688 @04 -> ?; 1i
Debug: 2005 2180 batch.c:199 log_dmi_decoded(): write: 
Debug: 2006 2180 batch.c:264 log_batch(): 40b w 22446688 @04 -> ?; 1i
Debug: 2007 2180 batch.c:199 log_dmi_decoded(): write: 
Debug: 2008 2180 batch.c:264 log_batch(): 40b w 22446688 @04 -> ?; 1i
Debug: 2009 2180 batch.c:199 log_dmi_decoded(): write: 
Debug: 2010 2180 batch.c:264 log_batch(): 40b w 22446688 @04 -> ?; 1i
Debug: 2011 2180 batch.c:199 log_dmi_decoded(): write: 
Debug: 2012 2180 batch.c:264 log_batch(): 40b w 22446688 @04 -> ?; 1i
Debug: 2013 2180 batch.c:199 log_dmi_decoded(): write: 
Debug: 2014 2180 batch.c:264 log_batch(): 40b w 22446688 @04 -> ?; 1i
Debug: 2015 2180 batch.c:199 log_dmi_decoded(): write: 
Debug: 2016 2180 batch.c:264 log_batch(): 40b w 22446688 @04 -> ?; 1i
Debug: 2017 2180 batch.c:199 log_dmi_decoded(): write: 
Debug: 2018 2180 batch.c:264 log_batch(): 40b w 22446688 @04 -> ?; 1i
Debug: 2019 2180 batch.c:199 log_dmi_decoded(): write: 
Debug: 2020 2180 batch.c:264 log_batch(): 40b w 22446688 @04 -> ?; 1i
Debug: 2021 2180 batch.c:199 log_dmi_decoded(): write: 
Debug: 2022 2180 batch.c:264 log_batch(): 40b w 22446688 @04 -> ?; 1i
Debug: 2023 2180 batch.c:199 log_dmi_decoded(): write: 
Debug: 2024 2180 batch.c:264 log_batch(): 40b w 22446688 @04 -> ?; 1i
Debug: 2025 2180 batch.c:199 log_dmi_decoded(): write: 
Debug: 2026 2180 batch.c:264 log_batch(): 40b w 22446688 @04 -> ?; 1i
Debug: 2027 2180 batch.c:199 log_dmi_decoded(): write: 
Debug: 2028 2180 batch.c:264 log_batch(): 40b w 22446688 @04 -> ?; 1i
Debug: 2029 2180 batch.c:199 log_dmi_decoded(): write: 
Debug: 2030 2180 batch.c:264 log_batch(): 40b w 22446688 @04 -> ?; 1i
Debug: 2031 2180 batch.c:199 log_dmi_decoded(): write: 
Debug: 2032 2180 batch.c:264 log_batch(): 40b w 22446688 @04 -> ?; 1i
Debug: 2033 2180 batch.c:199 log_dmi_decoded(): write: 
Debug: 2034 2180 batch.c:264 log_batch(): 40b w 22446688 @04 -> ?; 1i
Debug: 2035 2180 batch.c:199 log_dmi_decoded(): write: 
Debug: 2036 2180 batch.c:264 log_batch(): 40b w 22446688 @04 -> ?; 1i
Debug: 2037 2180 batch.c:199 log_dmi_decoded(): write: 
Debug: 2038 2180 batch.c:264 log_batch(): 40b w 22446688 @04 -> ?; 1i
Debug: 2039 2180 batch.c:199 log_dmi_decoded(): write: 
Debug: 2040 2180 batch.c:264 log_batch(): 40b w 22446688 @04 -> ?; 1i
Debug: 2041 2180 batch.c:199 log_dmi_decoded(): write: 
Debug: 2042 2180 batch.c:264 log_batch(): 40b w 22446688 @04 -> ?; 1i
Debug: 2043 2180 batch.c:199 log_dmi_decoded(): write: 
Debug: 2044 2180 batch.c:264 log_batch(): 40b w 22446688 @04 -> ?; 1i
Debug: 2045 2180 batch.c:199 log_dmi_decoded(): write: 
Debug: 2046 2180 batch.c:264 log_batch(): 40b w 22446688 @04 -> ?; 1i
Debug: 2047 2180 batch.c:199 log_dmi_decoded(): write: 
Debug: 2048 2180 batch.c:264 log_batch(): 40b w 22446688 @04 -> ?; 1i
Debug: 2049 2180 batch.c:199 log_dmi_decoded(): write: 
Debug: 2050 2180 batch.c:264 log_batch(): 40b w 22446688 @04 -> ?; 1i
Debug: 2051 2180 batch.c:199 log_dmi_decoded(): write: 
Debug: 2052 2180 batch.c:264 log_batch(): 40b w 22446688 @04 -> ?; 1i
Debug: 2053 2180 batch.c:199 log_dmi_decoded(): write: 
Debug: 2054 2180 batch.c:264 log_batch(): 40b w 22446688 @04 -> ?; 1i
Debug: 2055 2180 batch.c:199 log_dmi_decoded(): write: 
Debug: 2056 2180 batch.c:264 log_batch(): 40b w 22446688 @04 -> ?; 1i
Debug: 2057 2180 batch.c:199 log_dmi_decoded(): write: 
Debug: 2058 2180 batch.c:264 log_batch(): 40b w 22446688 @04 -> ?; 1i
Debug: 2059 2180 batch.c:199 log_dmi_decoded(): write: 
Debug: 2060 2180 batch.c:264 log_batch(): 40b w 22446688 @04 -> ?; 1i
Debug: 2061 2180 batch.c:199 log_dmi_decoded(): write: 
Debug: 2062 2180 batch.c:264 log_batch(): 40b w 22446688 @04 -> ?; 1i
Debug: 2063 2180 batch.c:199 log_dmi_decoded(): write: 
Debug: 2064 2180 batch.c:264 log_batch(): 40b w 22446688 @04 -> ?; 1i
Debug: 2065 2180 batch.c:199 log_dmi_decoded(): write: 
Debug: 2066 2180 batch.c:264 log_batch(): 40b w 22446688 @04 -> ?; 1i
Debug: 2067 2180 batch.c:199 log_dmi_decoded(): write: 
Debug: 2068 2180 batch.c:264 log_batch(): 40b w 22446688 @04 -> ?; 1i
Debug: 2069 2180 batch.c:199 log_dmi_decoded(): write: 
Debug: 2070 2180 batch.c:264 log_batch(): 40b w 22446688 @04 -> ?; 1i
Debug: 2071 2180 batch.c:199 log_dmi_decoded(): write: 
Debug: 2072 2180 batch.c:264 log_batch(): 40b w 22446688 @04 -> ?; 1i
Debug: 2073 2180 batch.c:199 log_dmi_decoded(): write: 
Debug: 2074 2180 batch.c:264 log_batch(): 40b w 22446688 @04 -> ?; 1i
Debug: 2075 2180 batch.c:199 log_dmi_decoded(): write: 
Debug: 2076 2180 batch.c:264 log_batch(): 40b w 22446688 @04 -> ?; 1i
Debug: 2077 2180 batch.c:199 log_dmi_decoded(): write: 
Debug: 2078 2180 batch.c:264 log_batch(): 40b w 22446688 @04 -> ?; 1i
Debug: 2079 2180 batch.c:199 log_dmi_decoded(): write: 
Debug: 2080 2180 batch.c:264 log_batch(): 40b w 22446688 @04 -> ?; 1i
Debug: 2081 2180 batch.c:199 log_dmi_decoded(): write: 
Debug: 2082 2180 batch.c:264 log_batch(): 40b w 22446688 @04 -> ?; 1i
Debug: 2083 2180 batch.c:199 log_dmi_decoded(): write: 
Debug: 2084 2180 batch.c:264 log_batch(): 40b w 22446688 @04 -> ?; 1i
Debug: 2085 2180 batch.c:199 log_dmi_decoded(): write: 
Debug: 2086 2180 batch.c:264 log_batch(): 40b w 22446688 @04 -> ?; 1i
Debug: 2087 2180 batch.c:199 log_dmi_decoded(): write: 
Debug: 2088 2180 batch.c:264 log_batch(): 40b w 22446688 @04 -> ?; 1i
Debug: 2089 2180 batch.c:199 log_dmi_decoded(): write: 
Debug: 2090 2180 batch.c:264 log_batch(): 40b w 22446688 @04 -> ?; 1i
Debug: 2091 2180 batch.c:199 log_dmi_decoded(): write: 
Debug: 2092 2180 batch.c:264 log_batch(): 40b w 22446688 @04 -> ?; 1i
Debug: 2093 2180 batch.c:199 log_dmi_decoded(): write: 
Debug: 2094 2180 batch.c:264 log_batch(): 40b w 22446688 @04 -> ?; 1i
Debug: 2095 2180 batch.c:199 log_dmi_decoded(): write: 
Debug: 2096 2180 batch.c:264 log_batch(): 40b w 22446688 @04 -> ?; 1i
Debug: 2097 2180 batch.c:199 log_dmi_decoded(): write: 
Debug: 2098 2180 batch.c:264 log_batch(): 40b w 22446688 @04 -> ?; 1i
Debug: 2099 2180 batch.c:199 log_dmi_decoded(): write: 
Debug: 2100 2180 batch.c:264 log_batch(): 40b w 22446688 @04 -> ?; 1i
Debug: 2101 2180 batch.c:199 log_dmi_decoded(): write: 
Debug: 2102 2180 batch.c:264 log_batch(): 40b w 22446688 @04 -> ?; 1i
Debug: 2103 2180 batch.c:199 log_dmi_decoded(): write: 
Debug: 2104 2180 batch.c:264 log_batch(): 40b w 22446688 @04 -> ?; 1i
Debug: 2105 2180 batch.c:199 log_dmi_decoded(): write: 
Debug: 2106 2180 batch.c:264 log_batch(): 40b w 22446688 @04 -> ?; 1i
Debug: 2107 2180 batch.c:199 log_dmi_decoded(): write: 
Debug: 2108 2180 batch.c:264 log_batch(): 40b w 22446688 @04 -> ?; 1i
Debug: 2109 2180 batch.c:199 log_dmi_decoded(): write: 
Debug: 2110 2180 batch.c:264 log_batch(): 40b w 22446688 @04 -> ?; 1i
Debug: 2111 2180 batch.c:199 log_dmi_decoded(): write: 
Debug: 2112 2180 batch.c:264 log_batch(): 40b w 22446688 @04 -> ?; 1i
Debug: 2113 2180 batch.c:199 log_dmi_decoded(): write: 
Debug: 2114 2180 batch.c:264 log_batch(): 40b w 22446688 @04 -> ?; 1i
Debug: 2115 2180 batch.c:199 log_dmi_decoded(): write: 
Debug: 2116 2180 batch.c:264 log_batch(): 40b w 22446688 @04 -> ?; 1i
Debug: 2117 2180 batch.c:199 log_dmi_decoded(): write: 
Debug: 2118 2180 batch.c:264 log_batch(): 40b w 22446688 @04 -> ?; 1i
Debug: 2119 2180 batch.c:199 log_dmi_decoded(): write: 
Debug: 2120 2180 batch.c:264 log_batch(): 40b w 22446688 @04 -> ?; 1i
Debug: 2121 2180 batch.c:199 log_dmi_decoded(): write: 
Debug: 2122 2180 batch.c:264 log_batch(): 40b w 22446688 @04 -> ?; 1i
Debug: 2123 2180 batch.c:199 log_dmi_decoded(): write: 
Debug: 2124 2180 batch.c:264 log_batch(): 40b w 22446688 @04 -> ?; 1i
Debug: 2125 2180 batch.c:199 log_dmi_decoded(): write: 
Debug: 2126 2180 batch.c:264 log_batch(): 40b w 22446688 @04 -> ?; 1i
Debug: 2127 2180 batch.c:199 log_dmi_decoded(): write: 
Debug: 2128 2180 batch.c:264 log_batch(): 40b w 22446688 @04 -> ?; 1i
Debug: 2129 2180 batch.c:199 log_dmi_decoded(): write: 
Debug: 2130 2180 batch.c:264 log_batch(): 40b w 22446688 @04 -> ?; 1i
Debug: 2131 2180 batch.c:199 log_dmi_decoded(): write: 
Debug: 2132 2180 batch.c:264 log_batch(): 40b w 22446688 @04 -> ?; 1i
Debug: 2133 2180 batch.c:199 log_dmi_decoded(): write: 
Debug: 2134 2180 batch.c:264 log_batch(): 40b w 22446688 @04 -> ?; 1i
Debug: 2135 2180 batch.c:199 log_dmi_decoded(): write: 
Debug: 2136 2180 batch.c:264 log_batch(): 40b w 22446688 @04 -> ?; 1i
Debug: 2137 2180 batch.c:199 log_dmi_decoded(): write: 
Debug: 2138 2180 batch.c:264 log_batch(): 40b w 22446688 @04 -> ?; 1i
Debug: 2139 2180 batch.c:199 log_dmi_decoded(): write: 
Debug: 2140 2180 batch.c:264 log_batch(): 40b w 22446688 @04 -> ?; 1i
Debug: 2141 2180 batch.c:199 log_dmi_decoded(): write: 
Debug: 2142 2180 batch.c:264 log_batch(): 40b w 22446688 @04 -> ?; 1i
Debug: 2143 2180 batch.c:199 log_dmi_decoded(): write: 
Debug: 2144 2180 batch.c:264 log_batch(): 40b w 00000000 @04 -> ?; 1i
Debug: 2145 2180 batch.c:199 log_dmi_decoded(): write: 
Debug: 2146 2180 batch.c:255 log_batch(): 40b - 00000000 @00 -> + 00000000 @04; 1i
Debug: 2147 2180 batch.c:291 riscv_batch_run_from(): [riscv.cpu] Running batch of scans [0, 2)
Debug: 2148 2180 batch.c:255 log_batch(): 40b r 00000000 @16 -> + 00000000 @00; 1i
Debug: 2149 2180 batch.c:255 log_batch(): 40b - 00000000 @00 -> + 02000002 @16; 1i
Debug: 2150 2180 batch.c:199 log_dmi_decoded(): read: abstractcs=0x2000002 {datacount=2 progbufsize=2}
Debug: 2151 2180 riscv-013.c:4823 write_memory_progbuf_run_batch(): [riscv.cpu] Successfully written memory block M[0x10110114.. 0x1011027c)
Debug: 2152 2180 batch.c:291 riscv_batch_run_from(): [riscv.cpu] Running batch of scans [0, 2)
Debug: 2153 2180 batch.c:255 log_batch(): 40b w 00000000 @18 -> + 00000000 @00; 1i
Debug: 2154 2180 batch.c:199 log_dmi_decoded(): write: 
Debug: 2155 2180 batch.c:255 log_batch(): 40b - 00000000 @00 -> + 00000000 @18; 1i
Debug: 2156 2180 program.c:33 riscv_program_write(): [riscv.cpu] progbuf[00] = DASM(0x0000100f)
Debug: 2157 2180 batch.c:291 riscv_batch_run_from(): [riscv.cpu] Running batch of scans [0, 2)
Debug: 2158 2180 batch.c:255 log_batch(): 40b w 0000100f @20 -> + 00000000 @00; 1i
Debug: 2159 2180 batch.c:199 log_dmi_decoded(): write: 
Debug: 2160 2180 batch.c:255 log_batch(): 40b - 00000000 @00 -> + 0000100f @20; 1i
Debug: 2161 2180 program.c:33 riscv_program_write(): [riscv.cpu] progbuf[01] = DASM(0x0330000f)
Debug: 2162 2180 batch.c:291 riscv_batch_run_from(): [riscv.cpu] Running batch of scans [0, 2)
Debug: 2163 2181 batch.c:255 log_batch(): 40b w 0330000f @21 -> + 00000000 @00; 1i
Debug: 2164 2181 batch.c:199 log_dmi_decoded(): write: 
Debug: 2165 2181 batch.c:255 log_batch(): 40b - 00000000 @00 -> + 0330000f @21; 1i
Debug: 2166 2181 riscv-013.c:664 riscv013_execute_abstract_command(): [riscv.cpu] access register=0x241000 {regno=0x1000 write=arg0 transfer=disabled postexec=enabled aarpostincrement=disabled aarsize=32bit}
Debug: 2167 2181 batch.c:291 riscv_batch_run_from(): [riscv.cpu] Running batch of scans [0, 3)
Debug: 2168 2181 batch.c:255 log_batch(): 40b w 00241000 @17 -> + 00000000 @00; 1i
Debug: 2169 2181 batch.c:199 log_dmi_decoded(): write: command=0x241000 {control=0x241000}
Debug: 2170 2181 batch.c:255 log_batch(): 40b r 00000000 @16 -> + 00241000 @17; 1i
Debug: 2171 2181 batch.c:255 log_batch(): 40b - 00000000 @00 -> + 02000002 @16; 1i
Debug: 2172 2181 batch.c:199 log_dmi_decoded(): read: abstractcs=0x2000002 {datacount=2 progbufsize=2}
Debug: 2173 2181 riscv-013.c:623 abstract_cmd_batch_check_and_clear_cmderr(): [riscv.cpu] abstractcs=0x2000002 {datacount=2 relaxedpriv=full_checks busy=ready progbufsize=2 cmderr=none}
Debug: 2174 2181 riscv-013.c:3003 execute_autofence(): [riscv.cpu] Successfully executed fence.i and fence rw, rw
Debug: 2175 2181 riscv-013.c:3462 log_mem_access_result(): [riscv.cpu] Succeeded to write memory via program buffer.
Debug: 2176 2181 gdb_server.c:424 gdb_log_incoming_packet(): [riscv.cpu] {1} received packet: P20=00001110
Debug: 2177 2181 riscv.c:3514 riscv_get_gdb_reg_list_internal(): [riscv.cpu] reg_class=0, read=0
Debug: 2178 2181 riscv-013_reg.c:51 riscv013_reg_set(): [riscv.cpu] Write 0x10110000 to pc (valid=0).
Debug: 2179 2181 riscv_reg.c:867 riscv_set_or_write_register(): [riscv.cpu] Writing to target: dpc <- 0x10110000 (cacheable=false, valid=true, dirty=false)
Debug: 2180 2181 riscv-013.c:5099 riscv013_set_register(): [riscv.cpu] writing 0x10110000 to register dpc
Debug: 2181 2181 riscv-013.c:1538 register_write_direct(): [riscv.cpu] Writing 0x10110000 to dpc
Debug: 2182 2181 riscv-013.c:901 register_write_abstract(): [riscv.cpu] access register=0x2307b1 {regno=0x7b1 write=register transfer=enabled postexec=disabled aarpostincrement=disabled aarsize=32bit}
Debug: 2183 2181 batch.c:291 riscv_batch_run_from(): [riscv.cpu] Running batch of scans [0, 4)
Debug: 2184 2181 batch.c:255 log_batch(): 40b w 10110000 @04 -> + 00000000 @00; 1i
Debug: 2185 2181 batch.c:199 log_dmi_decoded(): write: 
Debug: 2186 2181 batch.c:255 log_batch(): 40b w 002307b1 @17 -> + 10110000 @04; 1i
Debug: 2187 2181 batch.c:199 log_dmi_decoded(): write: command=0x2307b1 {control=0x2307b1}
Debug: 2188 2181 batch.c:255 log_batch(): 40b r 00000000 @16 -> + 002307b1 @17; 1i
Debug: 2189 2181 batch.c:255 log_batch(): 40b - 00000000 @00 -> + 02000002 @16; 1i
Debug: 2190 2181 batch.c:199 log_dmi_decoded(): read: abstractcs=0x2000002 {datacount=2 progbufsize=2}
Debug: 2191 2181 riscv-013.c:623 abstract_cmd_batch_check_and_clear_cmderr(): [riscv.cpu] abstractcs=0x2000002 {datacount=2 relaxedpriv=full_checks busy=ready progbufsize=2 cmderr=none}
Debug: 2192 2181 riscv-013.c:1557 register_write_direct(): [riscv.cpu] dpc <- 0x10110000
Debug: 2193 2181 riscv_reg.c:883 riscv_set_or_write_register(): [riscv.cpu] Wrote 0x10110000 to dpc (cacheable=false, valid=false, dirty=false)
Debug: 2194 2181 gdb_server.c:441 gdb_log_outgoing_packet(): [riscv.cpu] {1} sending packet: $OK#9a
Debug: 2195 2182 gdb_server.c:424 gdb_log_incoming_packet(): [riscv.cpu] {1} received packet: m10110080,40
Debug: 2196 2182 gdb_server.c:1582 gdb_read_memory_packet(): addr: 0x0000000010110080, len: 0x00000040
Debug: 2197 2182 target.c:2415 target_read_buffer(): reading buffer of 64 byte at 0x10110080
Debug: 2198 2182 riscv_reg.c:990 riscv_reg_get(): [riscv.cpu] Reading priv from target
Debug: 2199 2182 riscv_reg.c:985 riscv_reg_get(): [riscv.cpu] Read dcsr: 0x4003b0c3 (cached)
Debug: 2200 2182 riscv_reg.c:999 riscv_reg_get(): [riscv.cpu] Read priv: 0x3
Debug: 2201 2182 riscv_reg.c:990 riscv_reg_get(): [riscv.cpu] Reading priv from target
Debug: 2202 2182 riscv_reg.c:985 riscv_reg_get(): [riscv.cpu] Read dcsr: 0x4003b0c3 (cached)
Debug: 2203 2182 riscv_reg.c:999 riscv_reg_get(): [riscv.cpu] Read priv: 0x3
Debug: 2204 2182 riscv_reg.c:990 riscv_reg_get(): [riscv.cpu] Reading mstatus from target
Debug: 2205 2182 riscv-013.c:5083 riscv013_get_register(): [riscv.cpu] reading register mstatus
Debug: 2206 2182 riscv-013.c:1567 register_read_direct(): [riscv.cpu] Reading mstatus
Debug: 2207 2182 riscv-013.c:664 riscv013_execute_abstract_command(): [riscv.cpu] access register=0x220300 {regno=0x300 write=arg0 transfer=enabled postexec=disabled aarpostincrement=disabled aarsize=32bit}
Debug: 2208 2182 batch.c:291 riscv_batch_run_from(): [riscv.cpu] Running batch of scans [0, 3)
Debug: 2209 2182 batch.c:255 log_batch(): 40b w 00220300 @17 -> + 00000000 @00; 1i
Debug: 2210 2182 batch.c:199 log_dmi_decoded(): write: command=0x220300 {control=0x220300}
Debug: 2211 2182 batch.c:255 log_batch(): 40b r 00000000 @16 -> + 00220300 @17; 1i
Debug: 2212 2182 batch.c:255 log_batch(): 40b - 00000000 @00 -> + 02000002 @16; 1i
Debug: 2213 2182 batch.c:199 log_dmi_decoded(): read: abstractcs=0x2000002 {datacount=2 progbufsize=2}
Debug: 2214 2182 riscv-013.c:623 abstract_cmd_batch_check_and_clear_cmderr(): [riscv.cpu] abstractcs=0x2000002 {datacount=2 relaxedpriv=full_checks busy=ready progbufsize=2 cmderr=none}
Debug: 2215 2182 batch.c:291 riscv_batch_run_from(): [riscv.cpu] Running batch of scans [0, 2)
Debug: 2216 2182 batch.c:255 log_batch(): 40b r 00000000 @04 -> + 00000000 @00; 1i
Debug: 2217 2182 batch.c:255 log_batch(): 40b - 00000000 @00 -> + 00001800 @04; 1i
Debug: 2218 2182 batch.c:199 log_dmi_decoded(): read: 
Debug: 2219 2182 riscv-013.c:1586 register_read_direct(): [riscv.cpu] mstatus = 0x1800
Debug: 2220 2182 riscv_reg.c:999 riscv_reg_get(): [riscv.cpu] Read mstatus: 0x1800
Debug: 2221 2182 riscv.c:2999 riscv_effective_privilege_mode(): [riscv.cpu] Effective mode=3; v=0
Debug: 2222 2182 riscv.c:3074 riscv_mmu(): [riscv.cpu] SATP/MMU ignored in Machine mode.
Debug: 2223 2182 riscv-013.c:4380 read_memory_progbuf(): [riscv.cpu] reading 16 elements of 4 bytes from 0x10110080
Debug: 2224 2182 program.c:33 riscv_program_write(): [riscv.cpu] progbuf[00] = DASM(0x0000100f)
Debug: 2225 2182 riscv-013.c:5358 riscv013_write_progbuf(): [riscv.cpu] Cache hit for 0x100f @0
Debug: 2226 2182 program.c:33 riscv_program_write(): [riscv.cpu] progbuf[01] = DASM(0x0330000f)
Debug: 2227 2182 riscv-013.c:5358 riscv013_write_progbuf(): [riscv.cpu] Cache hit for 0x330000f @1
Debug: 2228 2182 riscv-013.c:664 riscv013_execute_abstract_command(): [riscv.cpu] access register=0x241000 {regno=0x1000 write=arg0 transfer=disabled postexec=enabled aarpostincrement=disabled aarsize=32bit}
Debug: 2229 2182 batch.c:291 riscv_batch_run_from(): [riscv.cpu] Running batch of scans [0, 3)
Debug: 2230 2183 batch.c:255 log_batch(): 40b w 00241000 @17 -> + 00000000 @00; 1i
Debug: 2231 2183 batch.c:199 log_dmi_decoded(): write: command=0x241000 {control=0x241000}
Debug: 2232 2183 batch.c:255 log_batch(): 40b r 00000000 @16 -> + 00241000 @17; 1i
Debug: 2233 2183 batch.c:255 log_batch(): 40b - 00000000 @00 -> + 02000002 @16; 1i
Debug: 2234 2183 batch.c:199 log_dmi_decoded(): read: abstractcs=0x2000002 {datacount=2 progbufsize=2}
Debug: 2235 2183 riscv-013.c:623 abstract_cmd_batch_check_and_clear_cmderr(): [riscv.cpu] abstractcs=0x2000002 {datacount=2 relaxedpriv=full_checks busy=ready progbufsize=2 cmderr=none}
Debug: 2236 2183 riscv-013.c:3003 execute_autofence(): [riscv.cpu] Successfully executed fence.i and fence rw, rw
Debug: 2237 2183 riscv-013_reg.c:382 riscv013_reg_save(): [riscv.cpu] Saving fp
Debug: 2238 2183 riscv_reg.c:985 riscv_reg_get(): [riscv.cpu] Read fp: 0x10110278 (cached)
Debug: 2239 2183 riscv-013_reg.c:382 riscv013_reg_save(): [riscv.cpu] Saving s1
Debug: 2240 2183 riscv_reg.c:985 riscv_reg_get(): [riscv.cpu] Read s1: 0x0 (cached)
Debug: 2241 2183 program.c:33 riscv_program_write(): [riscv.cpu] progbuf[00] = DASM(0x00042483)
Debug: 2242 2183 batch.c:291 riscv_batch_run_from(): [riscv.cpu] Running batch of scans [0, 2)
Debug: 2243 2183 batch.c:255 log_batch(): 40b w 00042483 @20 -> + 00000000 @00; 1i
Debug: 2244 2183 batch.c:199 log_dmi_decoded(): write: 
Debug: 2245 2183 batch.c:255 log_batch(): 40b - 00000000 @00 -> + 00042483 @20; 1i
Debug: 2246 2183 program.c:33 riscv_program_write(): [riscv.cpu] progbuf[01] = DASM(0x00440413)
Debug: 2247 2183 batch.c:291 riscv_batch_run_from(): [riscv.cpu] Running batch of scans [0, 2)
Debug: 2248 2183 batch.c:255 log_batch(): 40b w 00440413 @21 -> + 00000000 @00; 1i
Debug: 2249 2183 batch.c:199 log_dmi_decoded(): write: 
Debug: 2250 2183 batch.c:255 log_batch(): 40b - 00000000 @00 -> + 00440413 @21; 1i
Debug: 2251 2183 riscv-013.c:1538 register_write_direct(): [riscv.cpu] Writing 0x10110080 to fp
Debug: 2252 2183 riscv-013.c:901 register_write_abstract(): [riscv.cpu] access register=0x231008 {regno=0x1008 write=register transfer=enabled postexec=disabled aarpostincrement=disabled aarsize=32bit}
Debug: 2253 2183 batch.c:291 riscv_batch_run_from(): [riscv.cpu] Running batch of scans [0, 4)
Debug: 2254 2183 batch.c:255 log_batch(): 40b w 10110080 @04 -> + 00000000 @00; 1i
Debug: 2255 2183 batch.c:199 log_dmi_decoded(): write: 
Debug: 2256 2183 batch.c:255 log_batch(): 40b w 00231008 @17 -> + 10110080 @04; 1i
Debug: 2257 2183 batch.c:199 log_dmi_decoded(): write: command=0x231008 {control=0x231008}
Debug: 2258 2183 batch.c:255 log_batch(): 40b r 00000000 @16 -> + 00231008 @17; 1i
Debug: 2259 2183 batch.c:255 log_batch(): 40b - 00000000 @00 -> + 02000002 @16; 1i
Debug: 2260 2183 batch.c:199 log_dmi_decoded(): read: abstractcs=0x2000002 {datacount=2 progbufsize=2}
Debug: 2261 2183 riscv-013.c:623 abstract_cmd_batch_check_and_clear_cmderr(): [riscv.cpu] abstractcs=0x2000002 {datacount=2 relaxedpriv=full_checks busy=ready progbufsize=2 cmderr=none}
Debug: 2262 2183 riscv-013.c:1557 register_write_direct(): [riscv.cpu] fp <- 0x10110080
Debug: 2263 2183 riscv-013.c:664 riscv013_execute_abstract_command(): [riscv.cpu] access register=0x261009 {regno=0x1009 write=arg0 transfer=enabled postexec=enabled aarpostincrement=disabled aarsize=32bit}
Debug: 2264 2183 batch.c:291 riscv_batch_run_from(): [riscv.cpu] Running batch of scans [0, 3)
Debug: 2265 2183 batch.c:255 log_batch(): 40b w 00261009 @17 -> + 00000000 @00; 1i
Debug: 2266 2183 batch.c:199 log_dmi_decoded(): write: command=0x261009 {control=0x261009}
Debug: 2267 2183 batch.c:255 log_batch(): 40b r 00000000 @16 -> + 00261009 @17; 1i
Debug: 2268 2183 batch.c:255 log_batch(): 40b - 00000000 @00 -> + 02000002 @16; 1i
Debug: 2269 2183 batch.c:199 log_dmi_decoded(): read: abstractcs=0x2000002 {datacount=2 progbufsize=2}
Debug: 2270 2183 riscv-013.c:623 abstract_cmd_batch_check_and_clear_cmderr(): [riscv.cpu] abstractcs=0x2000002 {datacount=2 relaxedpriv=full_checks busy=ready progbufsize=2 cmderr=none}
Debug: 2271 2183 batch.c:291 riscv_batch_run_from(): [riscv.cpu] Running batch of scans [0, 2)
Debug: 2272 2183 batch.c:255 log_batch(): 40b w 00000001 @18 -> + 00000000 @00; 1i
Debug: 2273 2183 batch.c:199 log_dmi_decoded(): write: 
Debug: 2274 2183 batch.c:255 log_batch(): 40b - 00000000 @00 -> + 00000001 @18; 1i
Debug: 2275 2183 batch.c:291 riscv_batch_run_from(): [riscv.cpu] Running batch of scans [0, 2)
Debug: 2276 2184 batch.c:255 log_batch(): 40b r 00000000 @04 -> + 00000000 @00; 1i
Debug: 2277 2184 batch.c:255 log_batch(): 40b - 00000000 @00 -> + 00000000 @04; 1i
Debug: 2278 2184 batch.c:199 log_dmi_decoded(): read: 
Debug: 2279 2184 batch.c:291 riscv_batch_run_from(): [riscv.cpu] Running batch of scans [0, 2)
Debug: 2280 2184 batch.c:255 log_batch(): 40b r 00000000 @16 -> + 00000000 @00; 1i
Debug: 2281 2184 batch.c:255 log_batch(): 40b - 00000000 @00 -> + 02000002 @16; 1i
Debug: 2282 2184 batch.c:199 log_dmi_decoded(): read: abstractcs=0x2000002 {datacount=2 progbufsize=2}
Debug: 2283 2184 batch.c:291 riscv_batch_run_from(): [riscv.cpu] Running batch of scans [0, 15)
Debug: 2284 2185 batch.c:255 log_batch(): 40b r 00000000 @04 -> + 00000000 @00; 1i
Debug: 2285 2185 batch.c:255 log_batch(): 40b r 00000000 @04 -> + fe031fe3 @04; 1i
Debug: 2286 2185 batch.c:199 log_dmi_decoded(): read: 
Debug: 2287 2185 batch.c:255 log_batch(): 40b r 00000000 @04 -> + 30500073 @04; 1i
Debug: 2288 2185 batch.c:199 log_dmi_decoded(): read: 
Debug: 2289 2185 batch.c:255 log_batch(): 40b r 00000000 @04 -> + 0000b7f5 @04; 1i
Debug: 2290 2185 batch.c:199 log_dmi_decoded(): read: 
Debug: 2291 2185 batch.c:255 log_batch(): 40b r 00000000 @04 -> + ce221101 @04; 1i
Debug: 2292 2185 batch.c:199 log_dmi_decoded(): read: 
Debug: 2293 2185 batch.c:255 log_batch(): 40b r 00000000 @04 -> + 26231000 @04; 1i
Debug: 2294 2185 batch.c:199 log_dmi_decoded(): read: 
Debug: 2295 2185 batch.c:255 log_batch(): 40b r 00000000 @04 -> + 2423fea4 @04; 1i
Debug: 2296 2185 batch.c:199 log_dmi_decoded(): read: 
Debug: 2297 2185 batch.c:255 log_batch(): 40b r 00000000 @04 -> + 2703feb4 @04; 1i
Debug: 2298 2185 batch.c:199 log_dmi_decoded(): read: 
Debug: 2299 2185 batch.c:255 log_batch(): 40b r 00000000 @04 -> + 2783fec4 @04; 1i
Debug: 2300 2185 batch.c:199 log_dmi_decoded(): read: 
Debug: 2301 2185 batch.c:255 log_batch(): 40b r 00000000 @04 -> + 97bafe84 @04; 1i
Debug: 2302 2185 batch.c:199 log_dmi_decoded(): read: 
Debug: 2303 2185 batch.c:255 log_batch(): 40b r 00000000 @04 -> + 4472853e @04; 1i
Debug: 2304 2185 batch.c:199 log_dmi_decoded(): read: 
Debug: 2305 2185 batch.c:255 log_batch(): 40b r 00000000 @04 -> + 80826105 @04; 1i
Debug: 2306 2185 batch.c:199 log_dmi_decoded(): read: 
Debug: 2307 2185 batch.c:255 log_batch(): 40b r 00000000 @04 -> + d6067179 @04; 1i
Debug: 2308 2185 batch.c:199 log_dmi_decoded(): read: 
Debug: 2309 2185 batch.c:255 log_batch(): 40b r 00000000 @04 -> + 1800d422 @04; 1i
Debug: 2310 2185 batch.c:199 log_dmi_decoded(): read: 
Debug: 2311 2185 batch.c:255 log_batch(): 40b - 00000000 @00 -> + 00000797 @04; 1i
Debug: 2312 2185 batch.c:199 log_dmi_decoded(): read: 
Debug: 2313 2185 batch.c:291 riscv_batch_run_from(): [riscv.cpu] Running batch of scans [0, 2)
Debug: 2314 2185 batch.c:255 log_batch(): 40b r 00000000 @16 -> + 00000000 @00; 1i
Debug: 2315 2185 batch.c:255 log_batch(): 40b - 00000000 @00 -> + 02000002 @16; 1i
Debug: 2316 2185 batch.c:199 log_dmi_decoded(): read: abstractcs=0x2000002 {datacount=2 progbufsize=2}
Debug: 2317 2185 riscv-013.c:4095 read_memory_progbuf_inner_run_and_process_batch(): [riscv.cpu] successful (partial?) memory read [0, 14)
Debug: 2318 2185 riscv-013.c:3071 log_memory_access64(): M[0x10110080] reads 0xfe031fe3
Debug: 2319 2185 riscv-013.c:3071 log_memory_access64(): M[0x10110084] reads 0x30500073
Debug: 2320 2185 riscv-013.c:3071 log_memory_access64(): M[0x10110088] reads 0x0000b7f5
Debug: 2321 2185 riscv-013.c:3071 log_memory_access64(): M[0x1011008c] reads 0xce221101
Debug: 2322 2185 riscv-013.c:3071 log_memory_access64(): M[0x10110090] reads 0x26231000
Debug: 2323 2185 riscv-013.c:3071 log_memory_access64(): M[0x10110094] reads 0x2423fea4
Debug: 2324 2185 riscv-013.c:3071 log_memory_access64(): M[0x10110098] reads 0x2703feb4
Debug: 2325 2185 riscv-013.c:3071 log_memory_access64(): M[0x1011009c] reads 0x2783fec4
Debug: 2326 2185 riscv-013.c:3071 log_memory_access64(): M[0x101100a0] reads 0x97bafe84
Debug: 2327 2185 riscv-013.c:3071 log_memory_access64(): M[0x101100a4] reads 0x4472853e
Debug: 2328 2185 riscv-013.c:3071 log_memory_access64(): M[0x101100a8] reads 0x80826105
Debug: 2329 2185 riscv-013.c:3071 log_memory_access64(): M[0x101100ac] reads 0xd6067179
Debug: 2330 2185 riscv-013.c:3071 log_memory_access64(): M[0x101100b0] reads 0x1800d422
Debug: 2331 2185 riscv-013.c:3071 log_memory_access64(): M[0x101100b4] reads 0x00000797
Debug: 2332 2185 batch.c:291 riscv_batch_run_from(): [riscv.cpu] Running batch of scans [0, 2)
Debug: 2333 2185 batch.c:255 log_batch(): 40b w 00000000 @18 -> + 00000000 @00; 1i
Debug: 2334 2185 batch.c:199 log_dmi_decoded(): write: 
Debug: 2335 2185 batch.c:255 log_batch(): 40b - 00000000 @00 -> + 00000000 @18; 1i
Debug: 2336 2185 batch.c:291 riscv_batch_run_from(): [riscv.cpu] Running batch of scans [0, 2)
Debug: 2337 2185 batch.c:255 log_batch(): 40b r 00000000 @04 -> + 00000000 @00; 1i
Debug: 2338 2185 batch.c:255 log_batch(): 40b - 00000000 @00 -> + fd878793 @04; 1i
Debug: 2339 2185 batch.c:199 log_dmi_decoded(): read: 
Debug: 2340 2185 riscv-013.c:3071 log_memory_access64(): M[0x101100b8] reads 0xfd878793
Debug: 2341 2185 riscv-013.c:1567 register_read_direct(): [riscv.cpu] Reading s1
Debug: 2342 2185 riscv-013.c:664 riscv013_execute_abstract_command(): [riscv.cpu] access register=0x221009 {regno=0x1009 write=arg0 transfer=enabled postexec=disabled aarpostincrement=disabled aarsize=32bit}
Debug: 2343 2185 batch.c:291 riscv_batch_run_from(): [riscv.cpu] Running batch of scans [0, 3)
Debug: 2344 2185 batch.c:255 log_batch(): 40b w 00221009 @17 -> + 00000000 @00; 1i
Debug: 2345 2185 batch.c:199 log_dmi_decoded(): write: command=0x221009 {control=0x221009}
Debug: 2346 2185 batch.c:255 log_batch(): 40b r 00000000 @16 -> + 00221009 @17; 1i
Debug: 2347 2185 batch.c:255 log_batch(): 40b - 00000000 @00 -> + 02000002 @16; 1i
Debug: 2348 2185 batch.c:199 log_dmi_decoded(): read: abstractcs=0x2000002 {datacount=2 progbufsize=2}
Debug: 2349 2185 riscv-013.c:623 abstract_cmd_batch_check_and_clear_cmderr(): [riscv.cpu] abstractcs=0x2000002 {datacount=2 relaxedpriv=full_checks busy=ready progbufsize=2 cmderr=none}
Debug: 2350 2185 batch.c:291 riscv_batch_run_from(): [riscv.cpu] Running batch of scans [0, 2)
Debug: 2351 2186 batch.c:255 log_batch(): 40b r 00000000 @04 -> + 00000000 @00; 1i
Debug: 2352 2186 batch.c:255 log_batch(): 40b - 00000000 @00 -> + fef42223 @04; 1i
Debug: 2353 2186 batch.c:199 log_dmi_decoded(): read: 
Debug: 2354 2186 riscv-013.c:1586 register_read_direct(): [riscv.cpu] s1 = 0xfef42223
Debug: 2355 2186 riscv-013.c:3071 log_memory_access64(): M[0x101100bc] reads 0xfef42223
Debug: 2356 2186 riscv-013.c:3462 log_mem_access_result(): [riscv.cpu] Succeeded to read memory via program buffer.
Debug: 2357 2186 gdb_server.c:441 gdb_log_outgoing_packet(): [riscv.cpu] {1} sending packet: $e31f03fe73005030f5b70000011122ce00102326a4fe2324b4fe0327c4fe832784feba973e85724405618280797106d622d4001897070000938787fd2322f4fe#42
Debug: 2358 2186 gdb_server.c:424 gdb_log_incoming_packet(): [riscv.cpu] {1} received packet: m101100b4,4
Debug: 2359 2186 gdb_server.c:1582 gdb_read_memory_packet(): addr: 0x00000000101100b4, len: 0x00000004
Debug: 2360 2186 target.c:2415 target_read_buffer(): reading buffer of 4 byte at 0x101100b4
Debug: 2361 2186 riscv_reg.c:990 riscv_reg_get(): [riscv.cpu] Reading priv from target
Debug: 2362 2186 riscv_reg.c:985 riscv_reg_get(): [riscv.cpu] Read dcsr: 0x4003b0c3 (cached)
Debug: 2363 2186 riscv_reg.c:999 riscv_reg_get(): [riscv.cpu] Read priv: 0x3
Debug: 2364 2186 riscv_reg.c:990 riscv_reg_get(): [riscv.cpu] Reading priv from target
Debug: 2365 2186 riscv_reg.c:985 riscv_reg_get(): [riscv.cpu] Read dcsr: 0x4003b0c3 (cached)
Debug: 2366 2186 riscv_reg.c:999 riscv_reg_get(): [riscv.cpu] Read priv: 0x3
Debug: 2367 2186 riscv_reg.c:990 riscv_reg_get(): [riscv.cpu] Reading mstatus from target
Debug: 2368 2186 riscv-013.c:5083 riscv013_get_register(): [riscv.cpu] reading register mstatus
Debug: 2369 2186 riscv-013.c:1567 register_read_direct(): [riscv.cpu] Reading mstatus
Debug: 2370 2186 riscv-013.c:664 riscv013_execute_abstract_command(): [riscv.cpu] access register=0x220300 {regno=0x300 write=arg0 transfer=enabled postexec=disabled aarpostincrement=disabled aarsize=32bit}
Debug: 2371 2186 batch.c:291 riscv_batch_run_from(): [riscv.cpu] Running batch of scans [0, 3)
Debug: 2372 2186 batch.c:255 log_batch(): 40b w 00220300 @17 -> + 00000000 @00; 1i
Debug: 2373 2186 batch.c:199 log_dmi_decoded(): write: command=0x220300 {control=0x220300}
Debug: 2374 2186 batch.c:255 log_batch(): 40b r 00000000 @16 -> + 00220300 @17; 1i
Debug: 2375 2186 batch.c:255 log_batch(): 40b - 00000000 @00 -> + 02000002 @16; 1i
Debug: 2376 2186 batch.c:199 log_dmi_decoded(): read: abstractcs=0x2000002 {datacount=2 progbufsize=2}
Debug: 2377 2186 riscv-013.c:623 abstract_cmd_batch_check_and_clear_cmderr(): [riscv.cpu] abstractcs=0x2000002 {datacount=2 relaxedpriv=full_checks busy=ready progbufsize=2 cmderr=none}
Debug: 2378 2186 batch.c:291 riscv_batch_run_from(): [riscv.cpu] Running batch of scans [0, 2)
Debug: 2379 2186 batch.c:255 log_batch(): 40b r 00000000 @04 -> + 00000000 @00; 1i
Debug: 2380 2186 batch.c:255 log_batch(): 40b - 00000000 @00 -> + 00001800 @04; 1i
Debug: 2381 2186 batch.c:199 log_dmi_decoded(): read: 
Debug: 2382 2186 riscv-013.c:1586 register_read_direct(): [riscv.cpu] mstatus = 0x1800
Debug: 2383 2186 riscv_reg.c:999 riscv_reg_get(): [riscv.cpu] Read mstatus: 0x1800
Debug: 2384 2186 riscv.c:2999 riscv_effective_privilege_mode(): [riscv.cpu] Effective mode=3; v=0
Debug: 2385 2186 riscv.c:3074 riscv_mmu(): [riscv.cpu] SATP/MMU ignored in Machine mode.
Debug: 2386 2186 riscv-013.c:4380 read_memory_progbuf(): [riscv.cpu] reading 1 elements of 4 bytes from 0x101100b4
Debug: 2387 2186 program.c:33 riscv_program_write(): [riscv.cpu] progbuf[00] = DASM(0x0000100f)
Debug: 2388 2186 batch.c:291 riscv_batch_run_from(): [riscv.cpu] Running batch of scans [0, 2)
Debug: 2389 2186 batch.c:255 log_batch(): 40b w 0000100f @20 -> + 00000000 @00; 1i
Debug: 2390 2186 batch.c:199 log_dmi_decoded(): write: 
Debug: 2391 2186 batch.c:255 log_batch(): 40b - 00000000 @00 -> + 0000100f @20; 1i
Debug: 2392 2186 program.c:33 riscv_program_write(): [riscv.cpu] progbuf[01] = DASM(0x0330000f)
Debug: 2393 2186 batch.c:291 riscv_batch_run_from(): [riscv.cpu] Running batch of scans [0, 2)
Debug: 2394 2186 batch.c:255 log_batch(): 40b w 0330000f @21 -> + 00000000 @00; 1i
Debug: 2395 2186 batch.c:199 log_dmi_decoded(): write: 
Debug: 2396 2186 batch.c:255 log_batch(): 40b - 00000000 @00 -> + 0330000f @21; 1i
Debug: 2397 2186 riscv-013.c:664 riscv013_execute_abstract_command(): [riscv.cpu] access register=0x241000 {regno=0x1000 write=arg0 transfer=disabled postexec=enabled aarpostincrement=disabled aarsize=32bit}
Debug: 2398 2186 batch.c:291 riscv_batch_run_from(): [riscv.cpu] Running batch of scans [0, 3)
Debug: 2399 2187 batch.c:255 log_batch(): 40b w 00241000 @17 -> + 00000000 @00; 1i
Debug: 2400 2187 batch.c:199 log_dmi_decoded(): write: command=0x241000 {control=0x241000}
Debug: 2401 2187 batch.c:255 log_batch(): 40b r 00000000 @16 -> + 00241000 @17; 1i
Debug: 2402 2187 batch.c:255 log_batch(): 40b - 00000000 @00 -> + 02000002 @16; 1i
Debug: 2403 2187 batch.c:199 log_dmi_decoded(): read: abstractcs=0x2000002 {datacount=2 progbufsize=2}
Debug: 2404 2187 riscv-013.c:623 abstract_cmd_batch_check_and_clear_cmderr(): [riscv.cpu] abstractcs=0x2000002 {datacount=2 relaxedpriv=full_checks busy=ready progbufsize=2 cmderr=none}
Debug: 2405 2187 riscv-013.c:3003 execute_autofence(): [riscv.cpu] Successfully executed fence.i and fence rw, rw
Debug: 2406 2187 riscv-013_reg.c:382 riscv013_reg_save(): [riscv.cpu] Saving s1
Debug: 2407 2187 riscv_reg.c:985 riscv_reg_get(): [riscv.cpu] Read s1: 0x0 (cached)
Debug: 2408 2187 program.c:33 riscv_program_write(): [riscv.cpu] progbuf[00] = DASM(0x0004a483)
Debug: 2409 2187 batch.c:291 riscv_batch_run_from(): [riscv.cpu] Running batch of scans [0, 2)
Debug: 2410 2187 batch.c:255 log_batch(): 40b w 0004a483 @20 -> + 00000000 @00; 1i
Debug: 2411 2187 batch.c:199 log_dmi_decoded(): write: 
Debug: 2412 2187 batch.c:255 log_batch(): 40b - 00000000 @00 -> + 0004a483 @20; 1i
Debug: 2413 2187 program.c:33 riscv_program_write(): [riscv.cpu] progbuf[01] = DASM(0x00100073)
Debug: 2414 2187 batch.c:291 riscv_batch_run_from(): [riscv.cpu] Running batch of scans [0, 2)
Debug: 2415 2187 batch.c:255 log_batch(): 40b w 00100073 @21 -> + 00000000 @00; 1i
Debug: 2416 2187 batch.c:199 log_dmi_decoded(): write: 
Debug: 2417 2187 batch.c:255 log_batch(): 40b - 00000000 @00 -> + 00100073 @21; 1i
Debug: 2418 2187 batch.c:291 riscv_batch_run_from(): [riscv.cpu] Running batch of scans [0, 2)
Debug: 2419 2187 batch.c:255 log_batch(): 40b w 101100b4 @04 -> + 00000000 @00; 1i
Debug: 2420 2187 batch.c:199 log_dmi_decoded(): write: 
Debug: 2421 2187 batch.c:255 log_batch(): 40b - 00000000 @00 -> + 101100b4 @04; 1i
Debug: 2422 2187 riscv-013.c:664 riscv013_execute_abstract_command(): [riscv.cpu] access register=0x271009 {regno=0x1009 write=register transfer=enabled postexec=enabled aarpostincrement=disabled aarsize=32bit}
Debug: 2423 2187 batch.c:291 riscv_batch_run_from(): [riscv.cpu] Running batch of scans [0, 3)
Debug: 2424 2187 batch.c:255 log_batch(): 40b w 00271009 @17 -> + 00000000 @00; 1i
Debug: 2425 2187 batch.c:199 log_dmi_decoded(): write: command=0x271009 {control=0x271009}
Debug: 2426 2187 batch.c:255 log_batch(): 40b r 00000000 @16 -> + 00271009 @17; 1i
Debug: 2427 2187 batch.c:255 log_batch(): 40b - 00000000 @00 -> + 02000002 @16; 1i
Debug: 2428 2187 batch.c:199 log_dmi_decoded(): read: abstractcs=0x2000002 {datacount=2 progbufsize=2}
Debug: 2429 2187 riscv-013.c:623 abstract_cmd_batch_check_and_clear_cmderr(): [riscv.cpu] abstractcs=0x2000002 {datacount=2 relaxedpriv=full_checks busy=ready progbufsize=2 cmderr=none}
Debug: 2430 2187 riscv-013.c:1567 register_read_direct(): [riscv.cpu] Reading s1
Debug: 2431 2187 riscv-013.c:664 riscv013_execute_abstract_command(): [riscv.cpu] access register=0x221009 {regno=0x1009 write=arg0 transfer=enabled postexec=disabled aarpostincrement=disabled aarsize=32bit}
Debug: 2432 2187 batch.c:291 riscv_batch_run_from(): [riscv.cpu] Running batch of scans [0, 3)
Debug: 2433 2187 batch.c:255 log_batch(): 40b w 00221009 @17 -> + 00000000 @00; 1i
Debug: 2434 2187 batch.c:199 log_dmi_decoded(): write: command=0x221009 {control=0x221009}
Debug: 2435 2187 batch.c:255 log_batch(): 40b r 00000000 @16 -> + 00221009 @17; 1i
Debug: 2436 2187 batch.c:255 log_batch(): 40b - 00000000 @00 -> + 02000002 @16; 1i
Debug: 2437 2187 batch.c:199 log_dmi_decoded(): read: abstractcs=0x2000002 {datacount=2 progbufsize=2}
Debug: 2438 2187 riscv-013.c:623 abstract_cmd_batch_check_and_clear_cmderr(): [riscv.cpu] abstractcs=0x2000002 {datacount=2 relaxedpriv=full_checks busy=ready progbufsize=2 cmderr=none}
Debug: 2439 2187 batch.c:291 riscv_batch_run_from(): [riscv.cpu] Running batch of scans [0, 2)
Debug: 2440 2188 batch.c:255 log_batch(): 40b r 00000000 @04 -> + 00000000 @00; 1i
Debug: 2441 2188 batch.c:255 log_batch(): 40b - 00000000 @00 -> + 00000797 @04; 1i
Debug: 2442 2188 batch.c:199 log_dmi_decoded(): read: 
Debug: 2443 2188 riscv-013.c:1586 register_read_direct(): [riscv.cpu] s1 = 0x797
Debug: 2444 2188 riscv-013.c:3071 log_memory_access64(): M[0x101100b4] reads 0x00000797
Debug: 2445 2188 riscv-013.c:3462 log_mem_access_result(): [riscv.cpu] Succeeded to read memory via program buffer.
Debug: 2446 2188 gdb_server.c:441 gdb_log_outgoing_packet(): [riscv.cpu] {1} sending packet: $97070000#97
Debug: 2447 2217 riscv.c:4029 riscv_openocd_poll(): [riscv.cpu] Polling all harts.
Debug: 2448 2217 riscv.c:3852 riscv_poll_hart(): [riscv.cpu] polling, target->state=2
Debug: 2449 2217 batch.c:291 riscv_batch_run_from(): [riscv.cpu] Running batch of scans [0, 2)
Debug: 2450 2217 batch.c:255 log_batch(): 40b r 00000000 @11 -> + 00000000 @00; 1i
Debug: 2451 2217 batch.c:255 log_batch(): 40b - 00000000 @00 -> + 00430382 @11; 1i
Debug: 2452 2217 batch.c:199 log_dmi_decoded(): read: dmstatus=0x430382 {version=0_13 anyresumeack=1 allresumeack=1 impebreak=1 authenticated=true anyhalted=1 allhalted=1}
Debug: 2453 2217 riscv.c:4085 riscv_openocd_poll(): [riscv.cpu] should_remain_halted=0, should_resume=0
Debug: 2454 2217 target.c:3001 handle_target(): [riscv.cpu] target_poll() -> 0, next attempt in 100ms
Debug: 2455 2317 riscv.c:4029 riscv_openocd_poll(): [riscv.cpu] Polling all harts.
Debug: 2456 2317 riscv.c:3852 riscv_poll_hart(): [riscv.cpu] polling, target->state=2
Debug: 2457 2317 batch.c:291 riscv_batch_run_from(): [riscv.cpu] Running batch of scans [0, 2)
Debug: 2458 2318 batch.c:255 log_batch(): 40b r 00000000 @11 -> + 00000000 @00; 1i
Debug: 2459 2318 batch.c:255 log_batch(): 40b - 00000000 @00 -> + 00430382 @11; 1i
Debug: 2460 2318 batch.c:199 log_dmi_decoded(): read: dmstatus=0x430382 {version=0_13 anyresumeack=1 allresumeack=1 impebreak=1 authenticated=true anyhalted=1 allhalted=1}
Debug: 2461 2318 riscv_reg.c:792 riscv_reg_flush_all(): [riscv.cpu] Flushing register cache
Debug: 2462 2318 riscv_reg.c:803 riscv_reg_flush_all(): [riscv.cpu] s1 is dirty; write back 0x0
Debug: 2463 2318 riscv_reg.c:867 riscv_set_or_write_register(): [riscv.cpu] Writing to target: s1 <- 0x0 (cacheable=true, valid=true, dirty=true)
Debug: 2464 2318 riscv-013.c:5099 riscv013_set_register(): [riscv.cpu] writing 0x0 to register s1
Debug: 2465 2318 riscv-013.c:1538 register_write_direct(): [riscv.cpu] Writing 0x0 to s1
Debug: 2466 2318 riscv-013.c:901 register_write_abstract(): [riscv.cpu] access register=0x231009 {regno=0x1009 write=register transfer=enabled postexec=disabled aarpostincrement=disabled aarsize=32bit}
Debug: 2467 2318 batch.c:291 riscv_batch_run_from(): [riscv.cpu] Running batch of scans [0, 4)
Debug: 2468 2318 batch.c:255 log_batch(): 40b w 00000000 @04 -> + 00000000 @00; 1i
Debug: 2469 2318 batch.c:199 log_dmi_decoded(): write: 
Debug: 2470 2318 batch.c:255 log_batch(): 40b w 00231009 @17 -> + 00000000 @04; 1i
Debug: 2471 2318 batch.c:199 log_dmi_decoded(): write: command=0x231009 {control=0x231009}
Debug: 2472 2318 batch.c:255 log_batch(): 40b r 00000000 @16 -> + 00231009 @17; 1i
Debug: 2473 2318 batch.c:255 log_batch(): 40b - 00000000 @00 -> + 02000002 @16; 1i
Debug: 2474 2318 batch.c:199 log_dmi_decoded(): read: abstractcs=0x2000002 {datacount=2 progbufsize=2}
Debug: 2475 2318 riscv-013.c:623 abstract_cmd_batch_check_and_clear_cmderr(): [riscv.cpu] abstractcs=0x2000002 {datacount=2 relaxedpriv=full_checks busy=ready progbufsize=2 cmderr=none}
Debug: 2476 2318 riscv-013.c:1557 register_write_direct(): [riscv.cpu] s1 <- 0x0
Debug: 2477 2318 riscv_reg.c:883 riscv_set_or_write_register(): [riscv.cpu] Wrote 0x0 to s1 (cacheable=true, valid=true, dirty=false)
Debug: 2478 2318 riscv_reg.c:803 riscv_reg_flush_all(): [riscv.cpu] fp is dirty; write back 0x10110278
Debug: 2479 2318 riscv_reg.c:867 riscv_set_or_write_register(): [riscv.cpu] Writing to target: fp <- 0x10110278 (cacheable=true, valid=true, dirty=true)
Debug: 2480 2318 riscv-013.c:5099 riscv013_set_register(): [riscv.cpu] writing 0x10110278 to register fp
Debug: 2481 2318 riscv-013.c:1538 register_write_direct(): [riscv.cpu] Writing 0x10110278 to fp
Debug: 2482 2318 riscv-013.c:901 register_write_abstract(): [riscv.cpu] access register=0x231008 {regno=0x1008 write=register transfer=enabled postexec=disabled aarpostincrement=disabled aarsize=32bit}
Debug: 2483 2318 batch.c:291 riscv_batch_run_from(): [riscv.cpu] Running batch of scans [0, 4)
Debug: 2484 2319 batch.c:255 log_batch(): 40b w 10110278 @04 -> + 00000000 @00; 1i
Debug: 2485 2319 batch.c:199 log_dmi_decoded(): write: 
Debug: 2486 2319 batch.c:255 log_batch(): 40b w 00231008 @17 -> + 10110278 @04; 1i
Debug: 2487 2319 batch.c:199 log_dmi_decoded(): write: command=0x231008 {control=0x231008}
Debug: 2488 2319 batch.c:255 log_batch(): 40b r 00000000 @16 -> + 00231008 @17; 1i
Debug: 2489 2319 batch.c:255 log_batch(): 40b - 00000000 @00 -> + 02000002 @16; 1i
Debug: 2490 2319 batch.c:199 log_dmi_decoded(): read: abstractcs=0x2000002 {datacount=2 progbufsize=2}
Debug: 2491 2319 riscv-013.c:623 abstract_cmd_batch_check_and_clear_cmderr(): [riscv.cpu] abstractcs=0x2000002 {datacount=2 relaxedpriv=full_checks busy=ready progbufsize=2 cmderr=none}
Debug: 2492 2319 riscv-013.c:1557 register_write_direct(): [riscv.cpu] fp <- 0x10110278
Debug: 2493 2319 riscv_reg.c:883 riscv_set_or_write_register(): [riscv.cpu] Wrote 0x10110278 to fp (cacheable=true, valid=true, dirty=false)
Debug: 2494 2319 riscv_reg.c:809 riscv_reg_flush_all(): [riscv.cpu] Flush of register cache completed
Debug: 2495 2319 riscv.c:4085 riscv_openocd_poll(): [riscv.cpu] should_remain_halted=0, should_resume=0
Debug: 2496 2319 target.c:3001 handle_target(): [riscv.cpu] target_poll() -> 0, next attempt in 100ms
Debug: 2497 2417 riscv.c:4029 riscv_openocd_poll(): [riscv.cpu] Polling all harts.
Debug: 2498 2417 riscv.c:3852 riscv_poll_hart(): [riscv.cpu] polling, target->state=2
Debug: 2499 2417 batch.c:291 riscv_batch_run_from(): [riscv.cpu] Running batch of scans [0, 2)
Debug: 2500 2417 batch.c:255 log_batch(): 40b r 00000000 @11 -> + 00000000 @00; 1i
Debug: 2501 2417 batch.c:255 log_batch(): 40b - 00000000 @00 -> + 00430382 @11; 1i
Debug: 2502 2417 batch.c:199 log_dmi_decoded(): read: dmstatus=0x430382 {version=0_13 anyresumeack=1 allresumeack=1 impebreak=1 authenticated=true anyhalted=1 allhalted=1}
Debug: 2503 2417 riscv_reg.c:792 riscv_reg_flush_all(): [riscv.cpu] Flushing register cache
Debug: 2504 2417 riscv_reg.c:809 riscv_reg_flush_all(): [riscv.cpu] Flush of register cache completed
Debug: 2505 2417 riscv.c:4085 riscv_openocd_poll(): [riscv.cpu] should_remain_halted=0, should_resume=0
Debug: 2506 2417 target.c:3001 handle_target(): [riscv.cpu] target_poll() -> 0, next attempt in 100ms
Debug: 2507 2518 riscv.c:4029 riscv_openocd_poll(): [riscv.cpu] Polling all harts.
Debug: 2508 2518 riscv.c:3852 riscv_poll_hart(): [riscv.cpu] polling, target->state=2
Debug: 2509 2518 batch.c:291 riscv_batch_run_from(): [riscv.cpu] Running batch of scans [0, 2)
Debug: 2510 2518 batch.c:255 log_batch(): 40b r 00000000 @11 -> + 00000000 @00; 1i
Debug: 2511 2518 batch.c:255 log_batch(): 40b - 00000000 @00 -> + 00430382 @11; 1i
Debug: 2512 2518 batch.c:199 log_dmi_decoded(): read: dmstatus=0x430382 {version=0_13 anyresumeack=1 allresumeack=1 impebreak=1 authenticated=true anyhalted=1 allhalted=1}
Debug: 2513 2518 riscv_reg.c:792 riscv_reg_flush_all(): [riscv.cpu] Flushing register cache
Debug: 2514 2518 riscv_reg.c:809 riscv_reg_flush_all(): [riscv.cpu] Flush of register cache completed
Debug: 2515 2518 riscv.c:4085 riscv_openocd_poll(): [riscv.cpu] should_remain_halted=0, should_resume=0
Debug: 2516 2518 target.c:3001 handle_target(): [riscv.cpu] target_poll() -> 0, next attempt in 100ms
Debug: 2517 2618 riscv.c:4029 riscv_openocd_poll(): [riscv.cpu] Polling all harts.
Debug: 2518 2618 riscv.c:3852 riscv_poll_hart(): [riscv.cpu] polling, target->state=2
Debug: 2519 2618 batch.c:291 riscv_batch_run_from(): [riscv.cpu] Running batch of scans [0, 2)
Debug: 2520 2618 batch.c:255 log_batch(): 40b r 00000000 @11 -> + 00000000 @00; 1i
Debug: 2521 2618 batch.c:255 log_batch(): 40b - 00000000 @00 -> + 00430382 @11; 1i
Debug: 2522 2618 batch.c:199 log_dmi_decoded(): read: dmstatus=0x430382 {version=0_13 anyresumeack=1 allresumeack=1 impebreak=1 authenticated=true anyhalted=1 allhalted=1}
Debug: 2523 2618 riscv_reg.c:792 riscv_reg_flush_all(): [riscv.cpu] Flushing register cache
Debug: 2524 2619 riscv_reg.c:809 riscv_reg_flush_all(): [riscv.cpu] Flush of register cache completed
Debug: 2525 2619 riscv.c:4085 riscv_openocd_poll(): [riscv.cpu] should_remain_halted=0, should_resume=0
Debug: 2526 2619 target.c:3001 handle_target(): [riscv.cpu] target_poll() -> 0, next attempt in 100ms
Debug: 2527 2718 riscv.c:4029 riscv_openocd_poll(): [riscv.cpu] Polling all harts.
Debug: 2528 2718 riscv.c:3852 riscv_poll_hart(): [riscv.cpu] polling, target->state=2
Debug: 2529 2718 batch.c:291 riscv_batch_run_from(): [riscv.cpu] Running batch of scans [0, 2)
Debug: 2530 2718 batch.c:255 log_batch(): 40b r 00000000 @11 -> + 00000000 @00; 1i
Debug: 2531 2718 batch.c:255 log_batch(): 40b - 00000000 @00 -> + 00430382 @11; 1i
Debug: 2532 2718 batch.c:199 log_dmi_decoded(): read: dmstatus=0x430382 {version=0_13 anyresumeack=1 allresumeack=1 impebreak=1 authenticated=true anyhalted=1 allhalted=1}
Debug: 2533 2718 riscv_reg.c:792 riscv_reg_flush_all(): [riscv.cpu] Flushing register cache
Debug: 2534 2718 riscv_reg.c:809 riscv_reg_flush_all(): [riscv.cpu] Flush of register cache completed
Debug: 2535 2718 riscv.c:4085 riscv_openocd_poll(): [riscv.cpu] should_remain_halted=0, should_resume=0
Debug: 2536 2718 target.c:3001 handle_target(): [riscv.cpu] target_poll() -> 0, next attempt in 100ms
Debug: 2537 2818 riscv.c:4029 riscv_openocd_poll(): [riscv.cpu] Polling all harts.
Debug: 2538 2818 riscv.c:3852 riscv_poll_hart(): [riscv.cpu] polling, target->state=2
Debug: 2539 2818 batch.c:291 riscv_batch_run_from(): [riscv.cpu] Running batch of scans [0, 2)
Debug: 2540 2819 batch.c:255 log_batch(): 40b r 00000000 @11 -> + 00000000 @00; 1i
Debug: 2541 2819 batch.c:255 log_batch(): 40b - 00000000 @00 -> + 00430382 @11; 1i
Debug: 2542 2819 batch.c:199 log_dmi_decoded(): read: dmstatus=0x430382 {version=0_13 anyresumeack=1 allresumeack=1 impebreak=1 authenticated=true anyhalted=1 allhalted=1}
Debug: 2543 2819 riscv_reg.c:792 riscv_reg_flush_all(): [riscv.cpu] Flushing register cache
Debug: 2544 2819 riscv_reg.c:809 riscv_reg_flush_all(): [riscv.cpu] Flush of register cache completed
Debug: 2545 2819 riscv.c:4085 riscv_openocd_poll(): [riscv.cpu] should_remain_halted=0, should_resume=0
Debug: 2546 2819 target.c:3001 handle_target(): [riscv.cpu] target_poll() -> 0, next attempt in 100ms
Debug: 2547 2918 riscv.c:4029 riscv_openocd_poll(): [riscv.cpu] Polling all harts.
Debug: 2548 2918 riscv.c:3852 riscv_poll_hart(): [riscv.cpu] polling, target->state=2
Debug: 2549 2918 batch.c:291 riscv_batch_run_from(): [riscv.cpu] Running batch of scans [0, 2)
Debug: 2550 2918 batch.c:255 log_batch(): 40b r 00000000 @11 -> + 00000000 @00; 1i
Debug: 2551 2918 batch.c:255 log_batch(): 40b - 00000000 @00 -> + 00430382 @11; 1i
Debug: 2552 2918 batch.c:199 log_dmi_decoded(): read: dmstatus=0x430382 {version=0_13 anyresumeack=1 allresumeack=1 impebreak=1 authenticated=true anyhalted=1 allhalted=1}
Debug: 2553 2918 riscv_reg.c:792 riscv_reg_flush_all(): [riscv.cpu] Flushing register cache
Debug: 2554 2918 riscv_reg.c:809 riscv_reg_flush_all(): [riscv.cpu] Flush of register cache completed
Debug: 2555 2918 riscv.c:4085 riscv_openocd_poll(): [riscv.cpu] should_remain_halted=0, should_resume=0
Debug: 2556 2918 target.c:3001 handle_target(): [riscv.cpu] target_poll() -> 0, next attempt in 100ms
Debug: 2557 3018 riscv.c:4029 riscv_openocd_poll(): [riscv.cpu] Polling all harts.
Debug: 2558 3019 riscv.c:3852 riscv_poll_hart(): [riscv.cpu] polling, target->state=2
Debug: 2559 3019 batch.c:291 riscv_batch_run_from(): [riscv.cpu] Running batch of scans [0, 2)
Debug: 2560 3019 batch.c:255 log_batch(): 40b r 00000000 @11 -> + 00000000 @00; 1i
Debug: 2561 3019 batch.c:255 log_batch(): 40b - 00000000 @00 -> + 00430382 @11; 1i
Debug: 2562 3019 batch.c:199 log_dmi_decoded(): read: dmstatus=0x430382 {version=0_13 anyresumeack=1 allresumeack=1 impebreak=1 authenticated=true anyhalted=1 allhalted=1}
Debug: 2563 3019 riscv_reg.c:792 riscv_reg_flush_all(): [riscv.cpu] Flushing register cache
Debug: 2564 3019 riscv_reg.c:809 riscv_reg_flush_all(): [riscv.cpu] Flush of register cache completed
Debug: 2565 3019 riscv.c:4085 riscv_openocd_poll(): [riscv.cpu] should_remain_halted=0, should_resume=0
Debug: 2566 3019 target.c:3001 handle_target(): [riscv.cpu] target_poll() -> 0, next attempt in 100ms
Debug: 2567 3118 riscv.c:4029 riscv_openocd_poll(): [riscv.cpu] Polling all harts.
Debug: 2568 3118 riscv.c:3852 riscv_poll_hart(): [riscv.cpu] polling, target->state=2
Debug: 2569 3118 batch.c:291 riscv_batch_run_from(): [riscv.cpu] Running batch of scans [0, 2)
Debug: 2570 3118 batch.c:255 log_batch(): 40b r 00000000 @11 -> + 00000000 @00; 1i
Debug: 2571 3118 batch.c:255 log_batch(): 40b - 00000000 @00 -> + 00430382 @11; 1i
Debug: 2572 3118 batch.c:199 log_dmi_decoded(): read: dmstatus=0x430382 {version=0_13 anyresumeack=1 allresumeack=1 impebreak=1 authenticated=true anyhalted=1 allhalted=1}
Debug: 2573 3118 riscv_reg.c:792 riscv_reg_flush_all(): [riscv.cpu] Flushing register cache
Debug: 2574 3118 riscv_reg.c:809 riscv_reg_flush_all(): [riscv.cpu] Flush of register cache completed
Debug: 2575 3118 riscv.c:4085 riscv_openocd_poll(): [riscv.cpu] should_remain_halted=0, should_resume=0
Debug: 2576 3118 target.c:3001 handle_target(): [riscv.cpu] target_poll() -> 0, next attempt in 100ms
Debug: 2577 3219 riscv.c:4029 riscv_openocd_poll(): [riscv.cpu] Polling all harts.
Debug: 2578 3219 riscv.c:3852 riscv_poll_hart(): [riscv.cpu] polling, target->state=2
Debug: 2579 3219 batch.c:291 riscv_batch_run_from(): [riscv.cpu] Running batch of scans [0, 2)
Debug: 2580 3219 batch.c:255 log_batch(): 40b r 00000000 @11 -> + 00000000 @00; 1i
Debug: 2581 3219 batch.c:255 log_batch(): 40b - 00000000 @00 -> + 00430382 @11; 1i
Debug: 2582 3219 batch.c:199 log_dmi_decoded(): read: dmstatus=0x430382 {version=0_13 anyresumeack=1 allresumeack=1 impebreak=1 authenticated=true anyhalted=1 allhalted=1}
Debug: 2583 3219 riscv_reg.c:792 riscv_reg_flush_all(): [riscv.cpu] Flushing register cache
Debug: 2584 3219 riscv_reg.c:809 riscv_reg_flush_all(): [riscv.cpu] Flush of register cache completed
Debug: 2585 3219 riscv.c:4085 riscv_openocd_poll(): [riscv.cpu] should_remain_halted=0, should_resume=0
Debug: 2586 3219 target.c:3001 handle_target(): [riscv.cpu] target_poll() -> 0, next attempt in 100ms
Debug: 2587 3319 riscv.c:4029 riscv_openocd_poll(): [riscv.cpu] Polling all harts.
Debug: 2588 3319 riscv.c:3852 riscv_poll_hart(): [riscv.cpu] polling, target->state=2
Debug: 2589 3319 batch.c:291 riscv_batch_run_from(): [riscv.cpu] Running batch of scans [0, 2)
Debug: 2590 3320 batch.c:255 log_batch(): 40b r 00000000 @11 -> + 00000000 @00; 1i
Debug: 2591 3320 batch.c:255 log_batch(): 40b - 00000000 @00 -> + 00430382 @11; 1i
Debug: 2592 3320 batch.c:199 log_dmi_decoded(): read: dmstatus=0x430382 {version=0_13 anyresumeack=1 allresumeack=1 impebreak=1 authenticated=true anyhalted=1 allhalted=1}
Debug: 2593 3320 riscv_reg.c:792 riscv_reg_flush_all(): [riscv.cpu] Flushing register cache
Debug: 2594 3320 riscv_reg.c:809 riscv_reg_flush_all(): [riscv.cpu] Flush of register cache completed
Debug: 2595 3320 riscv.c:4085 riscv_openocd_poll(): [riscv.cpu] should_remain_halted=0, should_resume=0
Debug: 2596 3320 target.c:3001 handle_target(): [riscv.cpu] target_poll() -> 0, next attempt in 100ms
Debug: 2597 3419 riscv.c:4029 riscv_openocd_poll(): [riscv.cpu] Polling all harts.
Debug: 2598 3419 riscv.c:3852 riscv_poll_hart(): [riscv.cpu] polling, target->state=2
Debug: 2599 3419 batch.c:291 riscv_batch_run_from(): [riscv.cpu] Running batch of scans [0, 2)
Debug: 2600 3419 batch.c:255 log_batch(): 40b r 00000000 @11 -> + 00000000 @00; 1i
Debug: 2601 3419 batch.c:255 log_batch(): 40b - 00000000 @00 -> + 00430382 @11; 1i
Debug: 2602 3419 batch.c:199 log_dmi_decoded(): read: dmstatus=0x430382 {version=0_13 anyresumeack=1 allresumeack=1 impebreak=1 authenticated=true anyhalted=1 allhalted=1}
Debug: 2603 3419 riscv_reg.c:792 riscv_reg_flush_all(): [riscv.cpu] Flushing register cache
Debug: 2604 3419 riscv_reg.c:809 riscv_reg_flush_all(): [riscv.cpu] Flush of register cache completed
Debug: 2605 3419 riscv.c:4085 riscv_openocd_poll(): [riscv.cpu] should_remain_halted=0, should_resume=0
Debug: 2606 3419 target.c:3001 handle_target(): [riscv.cpu] target_poll() -> 0, next attempt in 100ms
Debug: 2607 3519 riscv.c:4029 riscv_openocd_poll(): [riscv.cpu] Polling all harts.
Debug: 2608 3519 riscv.c:3852 riscv_poll_hart(): [riscv.cpu] polling, target->state=2
Debug: 2609 3519 batch.c:291 riscv_batch_run_from(): [riscv.cpu] Running batch of scans [0, 2)
Debug: 2610 3520 batch.c:255 log_batch(): 40b r 00000000 @11 -> + 00000000 @00; 1i
Debug: 2611 3520 batch.c:255 log_batch(): 40b - 00000000 @00 -> + 00430382 @11; 1i
Debug: 2612 3520 batch.c:199 log_dmi_decoded(): read: dmstatus=0x430382 {version=0_13 anyresumeack=1 allresumeack=1 impebreak=1 authenticated=true anyhalted=1 allhalted=1}
Debug: 2613 3520 riscv_reg.c:792 riscv_reg_flush_all(): [riscv.cpu] Flushing register cache
Debug: 2614 3520 riscv_reg.c:809 riscv_reg_flush_all(): [riscv.cpu] Flush of register cache completed
Debug: 2615 3520 riscv.c:4085 riscv_openocd_poll(): [riscv.cpu] should_remain_halted=0, should_resume=0
Debug: 2616 3520 target.c:3001 handle_target(): [riscv.cpu] target_poll() -> 0, next attempt in 100ms
Debug: 2617 3619 riscv.c:4029 riscv_openocd_poll(): [riscv.cpu] Polling all harts.
Debug: 2618 3619 riscv.c:3852 riscv_poll_hart(): [riscv.cpu] polling, target->state=2
Debug: 2619 3619 batch.c:291 riscv_batch_run_from(): [riscv.cpu] Running batch of scans [0, 2)
Debug: 2620 3619 batch.c:255 log_batch(): 40b r 00000000 @11 -> + 00000000 @00; 1i
Debug: 2621 3619 batch.c:255 log_batch(): 40b - 00000000 @00 -> + 00430382 @11; 1i
Debug: 2622 3619 batch.c:199 log_dmi_decoded(): read: dmstatus=0x430382 {version=0_13 anyresumeack=1 allresumeack=1 impebreak=1 authenticated=true anyhalted=1 allhalted=1}
Debug: 2623 3619 riscv_reg.c:792 riscv_reg_flush_all(): [riscv.cpu] Flushing register cache
Debug: 2624 3619 riscv_reg.c:809 riscv_reg_flush_all(): [riscv.cpu] Flush of register cache completed
Debug: 2625 3619 riscv.c:4085 riscv_openocd_poll(): [riscv.cpu] should_remain_halted=0, should_resume=0
Debug: 2626 3619 target.c:3001 handle_target(): [riscv.cpu] target_poll() -> 0, next attempt in 100ms
Debug: 2627 3720 riscv.c:4029 riscv_openocd_poll(): [riscv.cpu] Polling all harts.
Debug: 2628 3720 riscv.c:3852 riscv_poll_hart(): [riscv.cpu] polling, target->state=2
Debug: 2629 3720 batch.c:291 riscv_batch_run_from(): [riscv.cpu] Running batch of scans [0, 2)
Debug: 2630 3720 batch.c:255 log_batch(): 40b r 00000000 @11 -> + 00000000 @00; 1i
Debug: 2631 3720 batch.c:255 log_batch(): 40b - 00000000 @00 -> + 00430382 @11; 1i
Debug: 2632 3720 batch.c:199 log_dmi_decoded(): read: dmstatus=0x430382 {version=0_13 anyresumeack=1 allresumeack=1 impebreak=1 authenticated=true anyhalted=1 allhalted=1}
Debug: 2633 3720 riscv_reg.c:792 riscv_reg_flush_all(): [riscv.cpu] Flushing register cache
Debug: 2634 3720 riscv_reg.c:809 riscv_reg_flush_all(): [riscv.cpu] Flush of register cache completed
Debug: 2635 3720 riscv.c:4085 riscv_openocd_poll(): [riscv.cpu] should_remain_halted=0, should_resume=0
Debug: 2636 3720 target.c:3001 handle_target(): [riscv.cpu] target_poll() -> 0, next attempt in 100ms
Debug: 2637 3792 gdb_server.c:424 gdb_log_incoming_packet(): [riscv.cpu] {1} received packet: Z0,101100b4,4
Debug: 2638 3792 gdb_server.c:1794 gdb_breakpoint_watchpoint_packet(): [riscv.cpu]
Debug: 2639 3792 riscv.c:1598 riscv_add_breakpoint(): [riscv.cpu] @0x101100b4
Debug: 2640 3792 riscv_reg.c:990 riscv_reg_get(): [riscv.cpu] Reading priv from target
Debug: 2641 3792 riscv_reg.c:985 riscv_reg_get(): [riscv.cpu] Read dcsr: 0x4003b0c3 (cached)
Debug: 2642 3792 riscv_reg.c:999 riscv_reg_get(): [riscv.cpu] Read priv: 0x3
Debug: 2643 3792 riscv_reg.c:990 riscv_reg_get(): [riscv.cpu] Reading priv from target
Debug: 2644 3792 riscv_reg.c:985 riscv_reg_get(): [riscv.cpu] Read dcsr: 0x4003b0c3 (cached)
Debug: 2645 3792 riscv_reg.c:999 riscv_reg_get(): [riscv.cpu] Read priv: 0x3
Debug: 2646 3792 riscv_reg.c:990 riscv_reg_get(): [riscv.cpu] Reading mstatus from target
Debug: 2647 3792 riscv-013.c:5083 riscv013_get_register(): [riscv.cpu] reading register mstatus
Debug: 2648 3792 riscv-013.c:1567 register_read_direct(): [riscv.cpu] Reading mstatus
Debug: 2649 3792 riscv-013.c:664 riscv013_execute_abstract_command(): [riscv.cpu] access register=0x220300 {regno=0x300 write=arg0 transfer=enabled postexec=disabled aarpostincrement=disabled aarsize=32bit}
Debug: 2650 3792 batch.c:291 riscv_batch_run_from(): [riscv.cpu] Running batch of scans [0, 3)
Debug: 2651 3792 batch.c:255 log_batch(): 40b w 00220300 @17 -> + 00000000 @00; 1i
Debug: 2652 3793 batch.c:199 log_dmi_decoded(): write: command=0x220300 {control=0x220300}
Debug: 2653 3793 batch.c:255 log_batch(): 40b r 00000000 @16 -> + 00220300 @17; 1i
Debug: 2654 3793 batch.c:255 log_batch(): 40b - 00000000 @00 -> + 02000002 @16; 1i
Debug: 2655 3793 batch.c:199 log_dmi_decoded(): read: abstractcs=0x2000002 {datacount=2 progbufsize=2}
Debug: 2656 3793 riscv-013.c:623 abstract_cmd_batch_check_and_clear_cmderr(): [riscv.cpu] abstractcs=0x2000002 {datacount=2 relaxedpriv=full_checks busy=ready progbufsize=2 cmderr=none}
Debug: 2657 3793 batch.c:291 riscv_batch_run_from(): [riscv.cpu] Running batch of scans [0, 2)
Debug: 2658 3793 batch.c:255 log_batch(): 40b r 00000000 @04 -> + 00000000 @00; 1i
Debug: 2659 3793 batch.c:255 log_batch(): 40b - 00000000 @00 -> + 00001800 @04; 1i
Debug: 2660 3793 batch.c:199 log_dmi_decoded(): read: 
Debug: 2661 3793 riscv-013.c:1586 register_read_direct(): [riscv.cpu] mstatus = 0x1800
Debug: 2662 3793 riscv_reg.c:999 riscv_reg_get(): [riscv.cpu] Read mstatus: 0x1800
Debug: 2663 3793 riscv.c:2999 riscv_effective_privilege_mode(): [riscv.cpu] Effective mode=3; v=0
Debug: 2664 3793 riscv.c:3074 riscv_mmu(): [riscv.cpu] SATP/MMU ignored in Machine mode.
Debug: 2665 3793 riscv-013.c:4380 read_memory_progbuf(): [riscv.cpu] reading 1 elements of 4 bytes from 0x101100b4
Debug: 2666 3793 program.c:33 riscv_program_write(): [riscv.cpu] progbuf[00] = DASM(0x0000100f)
Debug: 2667 3793 batch.c:291 riscv_batch_run_from(): [riscv.cpu] Running batch of scans [0, 2)
Debug: 2668 3793 batch.c:255 log_batch(): 40b w 0000100f @20 -> + 00000000 @00; 1i
Debug: 2669 3793 batch.c:199 log_dmi_decoded(): write: 
Debug: 2670 3793 batch.c:255 log_batch(): 40b - 00000000 @00 -> + 0000100f @20; 1i
Debug: 2671 3793 program.c:33 riscv_program_write(): [riscv.cpu] progbuf[01] = DASM(0x0330000f)
Debug: 2672 3793 batch.c:291 riscv_batch_run_from(): [riscv.cpu] Running batch of scans [0, 2)
Debug: 2673 3793 batch.c:255 log_batch(): 40b w 0330000f @21 -> + 00000000 @00; 1i
Debug: 2674 3793 batch.c:199 log_dmi_decoded(): write: 
Debug: 2675 3793 batch.c:255 log_batch(): 40b - 00000000 @00 -> + 0330000f @21; 1i
Debug: 2676 3793 riscv-013.c:664 riscv013_execute_abstract_command(): [riscv.cpu] access register=0x241000 {regno=0x1000 write=arg0 transfer=disabled postexec=enabled aarpostincrement=disabled aarsize=32bit}
Debug: 2677 3793 batch.c:291 riscv_batch_run_from(): [riscv.cpu] Running batch of scans [0, 3)
Debug: 2678 3794 batch.c:255 log_batch(): 40b w 00241000 @17 -> + 00000000 @00; 1i
Debug: 2679 3794 batch.c:199 log_dmi_decoded(): write: command=0x241000 {control=0x241000}
Debug: 2680 3794 batch.c:255 log_batch(): 40b r 00000000 @16 -> + 00241000 @17; 1i
Debug: 2681 3794 batch.c:255 log_batch(): 40b - 00000000 @00 -> + 02000002 @16; 1i
Debug: 2682 3794 batch.c:199 log_dmi_decoded(): read: abstractcs=0x2000002 {datacount=2 progbufsize=2}
Debug: 2683 3794 riscv-013.c:623 abstract_cmd_batch_check_and_clear_cmderr(): [riscv.cpu] abstractcs=0x2000002 {datacount=2 relaxedpriv=full_checks busy=ready progbufsize=2 cmderr=none}
Debug: 2684 3794 riscv-013.c:3003 execute_autofence(): [riscv.cpu] Successfully executed fence.i and fence rw, rw
Debug: 2685 3794 riscv-013_reg.c:382 riscv013_reg_save(): [riscv.cpu] Saving s1
Debug: 2686 3794 riscv_reg.c:985 riscv_reg_get(): [riscv.cpu] Read s1: 0x0 (cached)
Debug: 2687 3794 program.c:33 riscv_program_write(): [riscv.cpu] progbuf[00] = DASM(0x0004a483)
Debug: 2688 3794 batch.c:291 riscv_batch_run_from(): [riscv.cpu] Running batch of scans [0, 2)
Debug: 2689 3794 batch.c:255 log_batch(): 40b w 0004a483 @20 -> + 00000000 @00; 1i
Debug: 2690 3794 batch.c:199 log_dmi_decoded(): write: 
Debug: 2691 3794 batch.c:255 log_batch(): 40b - 00000000 @00 -> + 0004a483 @20; 1i
Debug: 2692 3794 program.c:33 riscv_program_write(): [riscv.cpu] progbuf[01] = DASM(0x00100073)
Debug: 2693 3794 batch.c:291 riscv_batch_run_from(): [riscv.cpu] Running batch of scans [0, 2)
Debug: 2694 3794 batch.c:255 log_batch(): 40b w 00100073 @21 -> + 00000000 @00; 1i
Debug: 2695 3794 batch.c:199 log_dmi_decoded(): write: 
Debug: 2696 3794 batch.c:255 log_batch(): 40b - 00000000 @00 -> + 00100073 @21; 1i
Debug: 2697 3794 batch.c:291 riscv_batch_run_from(): [riscv.cpu] Running batch of scans [0, 2)
Debug: 2698 3794 batch.c:255 log_batch(): 40b w 101100b4 @04 -> + 00000000 @00; 1i
Debug: 2699 3794 batch.c:199 log_dmi_decoded(): write: 
Debug: 2700 3794 batch.c:255 log_batch(): 40b - 00000000 @00 -> + 101100b4 @04; 1i
Debug: 2701 3794 riscv-013.c:664 riscv013_execute_abstract_command(): [riscv.cpu] access register=0x271009 {regno=0x1009 write=register transfer=enabled postexec=enabled aarpostincrement=disabled aarsize=32bit}
Debug: 2702 3794 batch.c:291 riscv_batch_run_from(): [riscv.cpu] Running batch of scans [0, 3)
Debug: 2703 3795 batch.c:255 log_batch(): 40b w 00271009 @17 -> + 00000000 @00; 1i
Debug: 2704 3795 batch.c:199 log_dmi_decoded(): write: command=0x271009 {control=0x271009}
Debug: 2705 3795 batch.c:255 log_batch(): 40b r 00000000 @16 -> + 00271009 @17; 1i
Debug: 2706 3795 batch.c:255 log_batch(): 40b - 00000000 @00 -> + 02000002 @16; 1i
Debug: 2707 3795 batch.c:199 log_dmi_decoded(): read: abstractcs=0x2000002 {datacount=2 progbufsize=2}
Debug: 2708 3795 riscv-013.c:623 abstract_cmd_batch_check_and_clear_cmderr(): [riscv.cpu] abstractcs=0x2000002 {datacount=2 relaxedpriv=full_checks busy=ready progbufsize=2 cmderr=none}
Debug: 2709 3795 riscv-013.c:1567 register_read_direct(): [riscv.cpu] Reading s1
Debug: 2710 3795 riscv-013.c:664 riscv013_execute_abstract_command(): [riscv.cpu] access register=0x221009 {regno=0x1009 write=arg0 transfer=enabled postexec=disabled aarpostincrement=disabled aarsize=32bit}
Debug: 2711 3795 batch.c:291 riscv_batch_run_from(): [riscv.cpu] Running batch of scans [0, 3)
Debug: 2712 3795 batch.c:255 log_batch(): 40b w 00221009 @17 -> + 00000000 @00; 1i
Debug: 2713 3795 batch.c:199 log_dmi_decoded(): write: command=0x221009 {control=0x221009}
Debug: 2714 3795 batch.c:255 log_batch(): 40b r 00000000 @16 -> + 00221009 @17; 1i
Debug: 2715 3795 batch.c:255 log_batch(): 40b - 00000000 @00 -> + 02000002 @16; 1i
Debug: 2716 3795 batch.c:199 log_dmi_decoded(): read: abstractcs=0x2000002 {datacount=2 progbufsize=2}
Debug: 2717 3795 riscv-013.c:623 abstract_cmd_batch_check_and_clear_cmderr(): [riscv.cpu] abstractcs=0x2000002 {datacount=2 relaxedpriv=full_checks busy=ready progbufsize=2 cmderr=none}
Debug: 2718 3795 batch.c:291 riscv_batch_run_from(): [riscv.cpu] Running batch of scans [0, 2)
Debug: 2719 3795 batch.c:255 log_batch(): 40b r 00000000 @04 -> + 00000000 @00; 1i
Debug: 2720 3795 batch.c:255 log_batch(): 40b - 00000000 @00 -> + 00000797 @04; 1i
Debug: 2721 3795 batch.c:199 log_dmi_decoded(): read: 
Debug: 2722 3795 riscv-013.c:1586 register_read_direct(): [riscv.cpu] s1 = 0x797
Debug: 2723 3795 riscv-013.c:3071 log_memory_access64(): M[0x101100b4] reads 0x00000797
Debug: 2724 3795 riscv-013.c:3462 log_mem_access_result(): [riscv.cpu] Succeeded to read memory via program buffer.
Debug: 2725 3795 riscv_reg.c:990 riscv_reg_get(): [riscv.cpu] Reading priv from target
Debug: 2726 3795 riscv_reg.c:985 riscv_reg_get(): [riscv.cpu] Read dcsr: 0x4003b0c3 (cached)
Debug: 2727 3795 riscv_reg.c:999 riscv_reg_get(): [riscv.cpu] Read priv: 0x3
Debug: 2728 3795 riscv_reg.c:990 riscv_reg_get(): [riscv.cpu] Reading priv from target
Debug: 2729 3795 riscv_reg.c:985 riscv_reg_get(): [riscv.cpu] Read dcsr: 0x4003b0c3 (cached)
Debug: 2730 3795 riscv_reg.c:999 riscv_reg_get(): [riscv.cpu] Read priv: 0x3
Debug: 2731 3795 riscv_reg.c:990 riscv_reg_get(): [riscv.cpu] Reading mstatus from target
Debug: 2732 3795 riscv-013.c:5083 riscv013_get_register(): [riscv.cpu] reading register mstatus
Debug: 2733 3795 riscv-013.c:1567 register_read_direct(): [riscv.cpu] Reading mstatus
Debug: 2734 3795 riscv-013.c:664 riscv013_execute_abstract_command(): [riscv.cpu] access register=0x220300 {regno=0x300 write=arg0 transfer=enabled postexec=disabled aarpostincrement=disabled aarsize=32bit}
Debug: 2735 3795 batch.c:291 riscv_batch_run_from(): [riscv.cpu] Running batch of scans [0, 3)
Debug: 2736 3796 batch.c:255 log_batch(): 40b w 00220300 @17 -> + 00000000 @00; 1i
Debug: 2737 3796 batch.c:199 log_dmi_decoded(): write: command=0x220300 {control=0x220300}
Debug: 2738 3796 batch.c:255 log_batch(): 40b r 00000000 @16 -> + 00220300 @17; 1i
Debug: 2739 3796 batch.c:255 log_batch(): 40b - 00000000 @00 -> + 02000002 @16; 1i
Debug: 2740 3796 batch.c:199 log_dmi_decoded(): read: abstractcs=0x2000002 {datacount=2 progbufsize=2}
Debug: 2741 3796 riscv-013.c:623 abstract_cmd_batch_check_and_clear_cmderr(): [riscv.cpu] abstractcs=0x2000002 {datacount=2 relaxedpriv=full_checks busy=ready progbufsize=2 cmderr=none}
Debug: 2742 3796 batch.c:291 riscv_batch_run_from(): [riscv.cpu] Running batch of scans [0, 2)
Debug: 2743 3796 batch.c:255 log_batch(): 40b r 00000000 @04 -> + 00000000 @00; 1i
Debug: 2744 3796 batch.c:255 log_batch(): 40b - 00000000 @00 -> + 00001800 @04; 1i
Debug: 2745 3796 batch.c:199 log_dmi_decoded(): read: 
Debug: 2746 3796 riscv-013.c:1586 register_read_direct(): [riscv.cpu] mstatus = 0x1800
Debug: 2747 3796 riscv_reg.c:999 riscv_reg_get(): [riscv.cpu] Read mstatus: 0x1800
Debug: 2748 3796 riscv.c:2999 riscv_effective_privilege_mode(): [riscv.cpu] Effective mode=3; v=0
Debug: 2749 3796 riscv.c:3074 riscv_mmu(): [riscv.cpu] SATP/MMU ignored in Machine mode.
Debug: 2750 3796 riscv-013.c:4924 write_memory_progbuf(): [riscv.cpu] writing 1 words of 4 bytes to 0x101100b4
Debug: 2751 3796 riscv-013_reg.c:382 riscv013_reg_save(): [riscv.cpu] Saving fp
Debug: 2752 3796 riscv_reg.c:985 riscv_reg_get(): [riscv.cpu] Read fp: 0x10110278 (cached)
Debug: 2753 3796 riscv-013_reg.c:382 riscv013_reg_save(): [riscv.cpu] Saving s1
Debug: 2754 3796 riscv_reg.c:985 riscv_reg_get(): [riscv.cpu] Read s1: 0x0 (cached)
Debug: 2755 3796 program.c:33 riscv_program_write(): [riscv.cpu] progbuf[00] = DASM(0x00942023)
Debug: 2756 3796 batch.c:291 riscv_batch_run_from(): [riscv.cpu] Running batch of scans [0, 2)
Debug: 2757 3796 batch.c:255 log_batch(): 40b w 00942023 @20 -> + 00000000 @00; 1i
Debug: 2758 3796 batch.c:199 log_dmi_decoded(): write: 
Debug: 2759 3796 batch.c:255 log_batch(): 40b - 00000000 @00 -> + 00942023 @20; 1i
Debug: 2760 3796 program.c:33 riscv_program_write(): [riscv.cpu] progbuf[01] = DASM(0x00440413)
Debug: 2761 3796 batch.c:291 riscv_batch_run_from(): [riscv.cpu] Running batch of scans [0, 2)
Debug: 2762 3796 batch.c:255 log_batch(): 40b w 00440413 @21 -> + 00000000 @00; 1i
Debug: 2763 3796 batch.c:199 log_dmi_decoded(): write: 
Debug: 2764 3796 batch.c:255 log_batch(): 40b - 00000000 @00 -> + 00440413 @21; 1i
Debug: 2765 3796 riscv-013.c:1538 register_write_direct(): [riscv.cpu] Writing 0x101100b4 to fp
Debug: 2766 3796 riscv-013.c:901 register_write_abstract(): [riscv.cpu] access register=0x231008 {regno=0x1008 write=register transfer=enabled postexec=disabled aarpostincrement=disabled aarsize=32bit}
Debug: 2767 3796 batch.c:291 riscv_batch_run_from(): [riscv.cpu] Running batch of scans [0, 4)
Debug: 2768 3797 batch.c:255 log_batch(): 40b w 101100b4 @04 -> + 00000000 @00; 1i
Debug: 2769 3797 batch.c:199 log_dmi_decoded(): write: 
Debug: 2770 3797 batch.c:255 log_batch(): 40b w 00231008 @17 -> + 101100b4 @04; 1i
Debug: 2771 3797 batch.c:199 log_dmi_decoded(): write: command=0x231008 {control=0x231008}
Debug: 2772 3797 batch.c:255 log_batch(): 40b r 00000000 @16 -> + 00231008 @17; 1i
Debug: 2773 3797 batch.c:255 log_batch(): 40b - 00000000 @00 -> + 02000002 @16; 1i
Debug: 2774 3797 batch.c:199 log_dmi_decoded(): read: abstractcs=0x2000002 {datacount=2 progbufsize=2}
Debug: 2775 3797 riscv-013.c:623 abstract_cmd_batch_check_and_clear_cmderr(): [riscv.cpu] abstractcs=0x2000002 {datacount=2 relaxedpriv=full_checks busy=ready progbufsize=2 cmderr=none}
Debug: 2776 3797 riscv-013.c:1557 register_write_direct(): [riscv.cpu] fp <- 0x101100b4
Debug: 2777 3797 batch.c:291 riscv_batch_run_from(): [riscv.cpu] Running batch of scans [0, 2)
Debug: 2778 3797 batch.c:255 log_batch(): 40b w 00100073 @04 -> + 00000000 @00; 1i
Debug: 2779 3797 batch.c:199 log_dmi_decoded(): write: 
Debug: 2780 3797 batch.c:255 log_batch(): 40b - 00000000 @00 -> + 00100073 @04; 1i
Debug: 2781 3797 riscv-013.c:664 riscv013_execute_abstract_command(): [riscv.cpu] access register=0x271009 {regno=0x1009 write=register transfer=enabled postexec=enabled aarpostincrement=disabled aarsize=32bit}
Debug: 2782 3797 batch.c:291 riscv_batch_run_from(): [riscv.cpu] Running batch of scans [0, 3)
Debug: 2783 3797 batch.c:255 log_batch(): 40b w 00271009 @17 -> + 00000000 @00; 1i
Debug: 2784 3797 batch.c:199 log_dmi_decoded(): write: command=0x271009 {control=0x271009}
Debug: 2785 3797 batch.c:255 log_batch(): 40b r 00000000 @16 -> + 00271009 @17; 1i
Debug: 2786 3797 batch.c:255 log_batch(): 40b - 00000000 @00 -> + 02000002 @16; 1i
Debug: 2787 3797 batch.c:199 log_dmi_decoded(): read: abstractcs=0x2000002 {datacount=2 progbufsize=2}
Debug: 2788 3797 riscv-013.c:623 abstract_cmd_batch_check_and_clear_cmderr(): [riscv.cpu] abstractcs=0x2000002 {datacount=2 relaxedpriv=full_checks busy=ready progbufsize=2 cmderr=none}
Debug: 2789 3797 riscv-013.c:3071 log_memory_access64(): M[0x101100b4] writes 0x00100073
Debug: 2790 3797 batch.c:291 riscv_batch_run_from(): [riscv.cpu] Running batch of scans [0, 2)
Debug: 2791 3798 batch.c:255 log_batch(): 40b w 00000001 @18 -> + 00000000 @00; 1i
Debug: 2792 3798 batch.c:199 log_dmi_decoded(): write: 
Debug: 2793 3798 batch.c:255 log_batch(): 40b - 00000000 @00 -> + 00000001 @18; 1i
Debug: 2794 3798 batch.c:291 riscv_batch_run_from(): [riscv.cpu] Running batch of scans [0, 2)
Debug: 2795 3798 batch.c:255 log_batch(): 40b w 00000000 @18 -> + 00000000 @00; 1i
Debug: 2796 3798 batch.c:199 log_dmi_decoded(): write: 
Debug: 2797 3798 batch.c:255 log_batch(): 40b - 00000000 @00 -> + 00000000 @18; 1i
Debug: 2798 3798 program.c:33 riscv_program_write(): [riscv.cpu] progbuf[00] = DASM(0x0000100f)
Debug: 2799 3798 batch.c:291 riscv_batch_run_from(): [riscv.cpu] Running batch of scans [0, 2)
Debug: 2800 3798 batch.c:255 log_batch(): 40b w 0000100f @20 -> + 00000000 @00; 1i
Debug: 2801 3798 batch.c:199 log_dmi_decoded(): write: 
Debug: 2802 3798 batch.c:255 log_batch(): 40b - 00000000 @00 -> + 0000100f @20; 1i
Debug: 2803 3798 program.c:33 riscv_program_write(): [riscv.cpu] progbuf[01] = DASM(0x0330000f)
Debug: 2804 3798 batch.c:291 riscv_batch_run_from(): [riscv.cpu] Running batch of scans [0, 2)
Debug: 2805 3798 batch.c:255 log_batch(): 40b w 0330000f @21 -> + 00000000 @00; 1i
Debug: 2806 3798 batch.c:199 log_dmi_decoded(): write: 
Debug: 2807 3798 batch.c:255 log_batch(): 40b - 00000000 @00 -> + 0330000f @21; 1i
Debug: 2808 3798 riscv-013.c:664 riscv013_execute_abstract_command(): [riscv.cpu] access register=0x241000 {regno=0x1000 write=arg0 transfer=disabled postexec=enabled aarpostincrement=disabled aarsize=32bit}
Debug: 2809 3798 batch.c:291 riscv_batch_run_from(): [riscv.cpu] Running batch of scans [0, 3)
Debug: 2810 3799 batch.c:255 log_batch(): 40b w 00241000 @17 -> + 00000000 @00; 1i
Debug: 2811 3799 batch.c:199 log_dmi_decoded(): write: command=0x241000 {control=0x241000}
Debug: 2812 3799 batch.c:255 log_batch(): 40b r 00000000 @16 -> + 00241000 @17; 1i
Debug: 2813 3799 batch.c:255 log_batch(): 40b - 00000000 @00 -> + 02000002 @16; 1i
Debug: 2814 3799 batch.c:199 log_dmi_decoded(): read: abstractcs=0x2000002 {datacount=2 progbufsize=2}
Debug: 2815 3799 riscv-013.c:623 abstract_cmd_batch_check_and_clear_cmderr(): [riscv.cpu] abstractcs=0x2000002 {datacount=2 relaxedpriv=full_checks busy=ready progbufsize=2 cmderr=none}
Debug: 2816 3799 riscv-013.c:3003 execute_autofence(): [riscv.cpu] Successfully executed fence.i and fence rw, rw
Debug: 2817 3799 riscv-013.c:3462 log_mem_access_result(): [riscv.cpu] Succeeded to write memory via program buffer.
Debug: 2818 3799 breakpoints.c:94 breakpoint_add_internal(): [riscv.cpu] added software breakpoint at 0x101100b4 of length 0x00000004, (BPID: 0)
Debug: 2819 3799 gdb_server.c:441 gdb_log_outgoing_packet(): [riscv.cpu] {1} sending packet: $OK#9a
Debug: 2820 3799 gdb_server.c:424 gdb_log_incoming_packet(): [riscv.cpu] {1} received packet: vCont?
Debug: 2821 3799 gdb_server.c:441 gdb_log_outgoing_packet(): [riscv.cpu] {1} sending packet: $vCont;c;C;s;S#62
Debug: 2822 3799 gdb_server.c:424 gdb_log_incoming_packet(): [riscv.cpu] {1} received packet: vCont;c
Debug: 2823 3799 gdb_server.c:3081 gdb_handle_vcont_packet(): [riscv.cpu] target continue
Debug: 2824 3799 target.c:1780 target_call_event_callbacks(): target event 3 (resume-start) for core riscv.cpu
Debug: 2825 3799 riscv.c:2929 riscv_resume(): [riscv.cpu] current=true, address=0x0, handle_breakpoints=false, debug_exec=false
Debug: 2826 3799 riscv.c:2939 riscv_resume(): [riscv.cpu] target->state=halted
Debug: 2827 3799 program.c:33 riscv_program_write(): [riscv.cpu] progbuf[00] = DASM(0x0000100f)
Debug: 2828 3799 riscv-013.c:5358 riscv013_write_progbuf(): [riscv.cpu] Cache hit for 0x100f @0
Debug: 2829 3799 program.c:33 riscv_program_write(): [riscv.cpu] progbuf[01] = DASM(0x0330000f)
Debug: 2830 3799 riscv-013.c:5358 riscv013_write_progbuf(): [riscv.cpu] Cache hit for 0x330000f @1
Debug: 2831 3799 riscv-013.c:664 riscv013_execute_abstract_command(): [riscv.cpu] access register=0x241000 {regno=0x1000 write=arg0 transfer=disabled postexec=enabled aarpostincrement=disabled aarsize=32bit}
Debug: 2832 3799 batch.c:291 riscv_batch_run_from(): [riscv.cpu] Running batch of scans [0, 3)
Debug: 2833 3800 batch.c:255 log_batch(): 40b w 00241000 @17 -> + 00000000 @00; 1i
Debug: 2834 3800 batch.c:199 log_dmi_decoded(): write: command=0x241000 {control=0x241000}
Debug: 2835 3800 batch.c:255 log_batch(): 40b r 00000000 @16 -> + 00241000 @17; 1i
Debug: 2836 3800 batch.c:255 log_batch(): 40b - 00000000 @00 -> + 02000002 @16; 1i
Debug: 2837 3800 batch.c:199 log_dmi_decoded(): read: abstractcs=0x2000002 {datacount=2 progbufsize=2}
Debug: 2838 3800 riscv-013.c:623 abstract_cmd_batch_check_and_clear_cmderr(): [riscv.cpu] abstractcs=0x2000002 {datacount=2 relaxedpriv=full_checks busy=ready progbufsize=2 cmderr=none}
Debug: 2839 3800 riscv-013.c:3003 execute_autofence(): [riscv.cpu] Successfully executed fence.i and fence rw, rw
Debug: 2840 3800 riscv-013.c:1617 set_dcsr_ebreak(): [riscv.cpu] Set dcsr.ebreak*
Debug: 2841 3800 riscv_reg.c:985 riscv_reg_get(): [riscv.cpu] Read dcsr: 0x4003b0c3 (cached)
Debug: 2842 3800 riscv_reg.c:792 riscv_reg_flush_all(): [riscv.cpu] Flushing register cache
Debug: 2843 3800 riscv_reg.c:803 riscv_reg_flush_all(): [riscv.cpu] s1 is dirty; write back 0x0
Debug: 2844 3800 riscv_reg.c:867 riscv_set_or_write_register(): [riscv.cpu] Writing to target: s1 <- 0x0 (cacheable=true, valid=true, dirty=true)
Debug: 2845 3800 riscv-013.c:5099 riscv013_set_register(): [riscv.cpu] writing 0x0 to register s1
Debug: 2846 3800 riscv-013.c:1538 register_write_direct(): [riscv.cpu] Writing 0x0 to s1
Debug: 2847 3800 riscv-013.c:901 register_write_abstract(): [riscv.cpu] access register=0x231009 {regno=0x1009 write=register transfer=enabled postexec=disabled aarpostincrement=disabled aarsize=32bit}
Debug: 2848 3800 batch.c:291 riscv_batch_run_from(): [riscv.cpu] Running batch of scans [0, 4)
Debug: 2849 3800 batch.c:255 log_batch(): 40b w 00000000 @04 -> + 00000000 @00; 1i
Debug: 2850 3800 batch.c:199 log_dmi_decoded(): write: 
Debug: 2851 3800 batch.c:255 log_batch(): 40b w 00231009 @17 -> + 00000000 @04; 1i
Debug: 2852 3800 batch.c:199 log_dmi_decoded(): write: command=0x231009 {control=0x231009}
Debug: 2853 3800 batch.c:255 log_batch(): 40b r 00000000 @16 -> + 00231009 @17; 1i
Debug: 2854 3800 batch.c:255 log_batch(): 40b - 00000000 @00 -> + 02000002 @16; 1i
Debug: 2855 3800 batch.c:199 log_dmi_decoded(): read: abstractcs=0x2000002 {datacount=2 progbufsize=2}
Debug: 2856 3800 riscv-013.c:623 abstract_cmd_batch_check_and_clear_cmderr(): [riscv.cpu] abstractcs=0x2000002 {datacount=2 relaxedpriv=full_checks busy=ready progbufsize=2 cmderr=none}
Debug: 2857 3800 riscv-013.c:1557 register_write_direct(): [riscv.cpu] s1 <- 0x0
Debug: 2858 3800 riscv_reg.c:883 riscv_set_or_write_register(): [riscv.cpu] Wrote 0x0 to s1 (cacheable=true, valid=true, dirty=false)
Debug: 2859 3800 riscv_reg.c:803 riscv_reg_flush_all(): [riscv.cpu] fp is dirty; write back 0x10110278
Debug: 2860 3800 riscv_reg.c:867 riscv_set_or_write_register(): [riscv.cpu] Writing to target: fp <- 0x10110278 (cacheable=true, valid=true, dirty=true)
Debug: 2861 3800 riscv-013.c:5099 riscv013_set_register(): [riscv.cpu] writing 0x10110278 to register fp
Debug: 2862 3800 riscv-013.c:1538 register_write_direct(): [riscv.cpu] Writing 0x10110278 to fp
Debug: 2863 3800 riscv-013.c:901 register_write_abstract(): [riscv.cpu] access register=0x231008 {regno=0x1008 write=register transfer=enabled postexec=disabled aarpostincrement=disabled aarsize=32bit}
Debug: 2864 3800 batch.c:291 riscv_batch_run_from(): [riscv.cpu] Running batch of scans [0, 4)
Debug: 2865 3801 batch.c:255 log_batch(): 40b w 10110278 @04 -> + 00000000 @00; 1i
Debug: 2866 3801 batch.c:199 log_dmi_decoded(): write: 
Debug: 2867 3801 batch.c:255 log_batch(): 40b w 00231008 @17 -> + 10110278 @04; 1i
Debug: 2868 3801 batch.c:199 log_dmi_decoded(): write: command=0x231008 {control=0x231008}
Debug: 2869 3801 batch.c:255 log_batch(): 40b r 00000000 @16 -> + 00231008 @17; 1i
Debug: 2870 3801 batch.c:255 log_batch(): 40b - 00000000 @00 -> + 02000002 @16; 1i
Debug: 2871 3801 batch.c:199 log_dmi_decoded(): read: abstractcs=0x2000002 {datacount=2 progbufsize=2}
Debug: 2872 3801 riscv-013.c:623 abstract_cmd_batch_check_and_clear_cmderr(): [riscv.cpu] abstractcs=0x2000002 {datacount=2 relaxedpriv=full_checks busy=ready progbufsize=2 cmderr=none}
Debug: 2873 3801 riscv-013.c:1557 register_write_direct(): [riscv.cpu] fp <- 0x10110278
Debug: 2874 3801 riscv_reg.c:883 riscv_set_or_write_register(): [riscv.cpu] Wrote 0x10110278 to fp (cacheable=true, valid=true, dirty=false)
Debug: 2875 3801 riscv_reg.c:809 riscv_reg_flush_all(): [riscv.cpu] Flush of register cache completed
Debug: 2876 3801 riscv.c:2850 resume_prep(): [riscv.cpu] Mark as prepped.
Debug: 2877 3801 riscv.c:5937 riscv_resume_go_all_harts(): [riscv.cpu] Resuming hart, state=2.
Debug: 2878 3801 riscv-013.c:5159 select_prepped_harts(): [riscv.cpu] index=0, prepped=1
Debug: 2879 3801 riscv-013.c:5449 riscv013_step_or_resume_current_hart(): [riscv.cpu] resuming (operation=resume)
Debug: 2880 3801 riscv_reg.c:792 riscv_reg_flush_all(): [riscv.cpu] Flushing register cache
Debug: 2881 3801 riscv_reg.c:809 riscv_reg_flush_all(): [riscv.cpu] Flush of register cache completed
Debug: 2882 3801 riscv_reg.c:915 riscv_reg_cache_invalidate_all(): [riscv.cpu] Invalidating register cache.
Debug: 2883 3801 batch.c:291 riscv_batch_run_from(): [riscv.cpu] Running batch of scans [0, 2)
Debug: 2884 3801 batch.c:255 log_batch(): 40b w 40000001 @10 -> + 00000000 @00; 1i
Debug: 2885 3801 batch.c:199 log_dmi_decoded(): write: dmcontrol=0x40000001 {dmactive=active resumereq=1}
Debug: 2886 3801 batch.c:255 log_batch(): 40b - 00000000 @00 -> + 40000001 @10; 1i
Debug: 2887 3801 batch.c:291 riscv_batch_run_from(): [riscv.cpu] Running batch of scans [0, 2)
Debug: 2888 3801 batch.c:255 log_batch(): 40b r 00000000 @11 -> + 00000000 @00; 1i
Debug: 2889 3801 batch.c:255 log_batch(): 40b - 00000000 @00 -> + 00430382 @11; 1i
Debug: 2890 3801 batch.c:199 log_dmi_decoded(): read: dmstatus=0x430382 {version=0_13 anyresumeack=1 allresumeack=1 impebreak=1 authenticated=true anyhalted=1 allhalted=1}
Debug: 2891 3801 batch.c:291 riscv_batch_run_from(): [riscv.cpu] Running batch of scans [0, 2)
Debug: 2892 3801 batch.c:255 log_batch(): 40b w 00000001 @10 -> + 00000000 @00; 1i
Debug: 2893 3801 batch.c:199 log_dmi_decoded(): write: dmcontrol=1 {dmactive=active}
Debug: 2894 3801 batch.c:255 log_batch(): 40b - 00000000 @00 -> + 00000001 @10; 1i
Debug: 2895 3802 riscv_reg.c:915 riscv_reg_cache_invalidate_all(): [riscv.cpu] Invalidating register cache.
Debug: 2896 3802 target.c:1780 target_call_event_callbacks(): target event 2 (resumed) for core riscv.cpu
Debug: 2897 3802 target.c:1780 target_call_event_callbacks(): target event 4 (resume-end) for core riscv.cpu
Debug: 2898 3802 target.c:1780 target_call_event_callbacks(): target event 7 (gdb-start) for core riscv.cpu
Debug: 2899 3820 riscv.c:4029 riscv_openocd_poll(): [riscv.cpu] Polling all harts.
Debug: 2900 3820 riscv.c:3852 riscv_poll_hart(): [riscv.cpu] polling, target->state=1
Debug: 2901 3820 batch.c:291 riscv_batch_run_from(): [riscv.cpu] Running batch of scans [0, 2)
Debug: 2902 3820 batch.c:255 log_batch(): 40b r 00000000 @11 -> + 00000000 @00; 1i
Debug: 2903 3820 batch.c:255 log_batch(): 40b - 00000000 @00 -> + 00430382 @11; 1i
Debug: 2904 3820 batch.c:199 log_dmi_decoded(): read: dmstatus=0x430382 {version=0_13 anyresumeack=1 allresumeack=1 impebreak=1 authenticated=true anyhalted=1 allhalted=1}
Debug: 2905 3820 riscv.c:3904 riscv_poll_hart(): [riscv.cpu]   triggered a halt; previous_target_state=1
Debug: 2906 3820 riscv-013.c:1567 register_read_direct(): [riscv.cpu] Reading dcsr
Debug: 2907 3820 riscv-013.c:664 riscv013_execute_abstract_command(): [riscv.cpu] access register=0x2207b0 {regno=0x7b0 write=arg0 transfer=enabled postexec=disabled aarpostincrement=disabled aarsize=32bit}
Debug: 2908 3820 batch.c:291 riscv_batch_run_from(): [riscv.cpu] Running batch of scans [0, 3)
Debug: 2909 3820 batch.c:255 log_batch(): 40b w 002207b0 @17 -> + 00000000 @00; 1i
Debug: 2910 3820 batch.c:199 log_dmi_decoded(): write: command=0x2207b0 {control=0x2207b0}
Debug: 2911 3820 batch.c:255 log_batch(): 40b r 00000000 @16 -> + 002207b0 @17; 1i
Debug: 2912 3820 batch.c:255 log_batch(): 40b - 00000000 @00 -> + 02000002 @16; 1i
Debug: 2913 3820 batch.c:199 log_dmi_decoded(): read: abstractcs=0x2000002 {datacount=2 progbufsize=2}
Debug: 2914 3820 riscv-013.c:623 abstract_cmd_batch_check_and_clear_cmderr(): [riscv.cpu] abstractcs=0x2000002 {datacount=2 relaxedpriv=full_checks busy=ready progbufsize=2 cmderr=none}
Debug: 2915 3820 batch.c:291 riscv_batch_run_from(): [riscv.cpu] Running batch of scans [0, 2)
Debug: 2916 3821 batch.c:255 log_batch(): 40b r 00000000 @04 -> + 00000000 @00; 1i
Debug: 2917 3821 batch.c:255 log_batch(): 40b - 00000000 @00 -> + 4003b043 @04; 1i
Debug: 2918 3821 batch.c:199 log_dmi_decoded(): read: 
Debug: 2919 3821 riscv-013.c:1586 register_read_direct(): [riscv.cpu] dcsr = 0x4003b043
Debug: 2920 3821 riscv-013.c:5322 riscv013_halt_reason(): [riscv.cpu] dcsr.cause: 0x1
Debug: 2921 3821 riscv.c:2619 set_debug_reason(): [riscv.cpu] debug_reason=1
Debug: 2922 3821 riscv_reg.c:990 riscv_reg_get(): [riscv.cpu] Reading dpc from target
Debug: 2923 3821 riscv-013.c:5083 riscv013_get_register(): [riscv.cpu] reading register dpc
Debug: 2924 3821 riscv-013.c:1567 register_read_direct(): [riscv.cpu] Reading dpc
Debug: 2925 3821 riscv-013.c:664 riscv013_execute_abstract_command(): [riscv.cpu] access register=0x2207b1 {regno=0x7b1 write=arg0 transfer=enabled postexec=disabled aarpostincrement=disabled aarsize=32bit}
Debug: 2926 3821 batch.c:291 riscv_batch_run_from(): [riscv.cpu] Running batch of scans [0, 3)
Debug: 2927 3821 batch.c:255 log_batch(): 40b w 002207b1 @17 -> + 00000000 @00; 1i
Debug: 2928 3821 batch.c:199 log_dmi_decoded(): write: command=0x2207b1 {control=0x2207b1}
Debug: 2929 3821 batch.c:255 log_batch(): 40b r 00000000 @16 -> + 002207b1 @17; 1i
Debug: 2930 3821 batch.c:255 log_batch(): 40b - 00000000 @00 -> + 02000002 @16; 1i
Debug: 2931 3821 batch.c:199 log_dmi_decoded(): read: abstractcs=0x2000002 {datacount=2 progbufsize=2}
Debug: 2932 3821 riscv-013.c:623 abstract_cmd_batch_check_and_clear_cmderr(): [riscv.cpu] abstractcs=0x2000002 {datacount=2 relaxedpriv=full_checks busy=ready progbufsize=2 cmderr=none}
Debug: 2933 3821 batch.c:291 riscv_batch_run_from(): [riscv.cpu] Running batch of scans [0, 2)
Debug: 2934 3821 batch.c:255 log_batch(): 40b r 00000000 @04 -> + 00000000 @00; 1i
Debug: 2935 3821 batch.c:255 log_batch(): 40b - 00000000 @00 -> + 101100b4 @04; 1i
Debug: 2936 3821 batch.c:199 log_dmi_decoded(): read: 
Debug: 2937 3821 riscv-013.c:1586 register_read_direct(): [riscv.cpu] dpc = 0x101100b4
Debug: 2938 3821 riscv_reg.c:999 riscv_reg_get(): [riscv.cpu] Read dpc: 0x101100b4
Debug: 2939 3821 riscv_semihosting.c:54 riscv_semihosting_detect_magic_sequence(): [riscv.cpu] Checking for RISC-V semihosting sequence at PC = 0x101100b4
Debug: 2940 3821 riscv_reg.c:990 riscv_reg_get(): [riscv.cpu] Reading priv from target
Debug: 2941 3821 riscv_reg.c:990 riscv_reg_get(): [riscv.cpu] Reading dcsr from target
Debug: 2942 3821 riscv-013.c:5083 riscv013_get_register(): [riscv.cpu] reading register dcsr
Debug: 2943 3821 riscv-013.c:1567 register_read_direct(): [riscv.cpu] Reading dcsr
Debug: 2944 3821 riscv-013.c:664 riscv013_execute_abstract_command(): [riscv.cpu] access register=0x2207b0 {regno=0x7b0 write=arg0 transfer=enabled postexec=disabled aarpostincrement=disabled aarsize=32bit}
Debug: 2945 3821 batch.c:291 riscv_batch_run_from(): [riscv.cpu] Running batch of scans [0, 3)
Debug: 2946 3822 batch.c:255 log_batch(): 40b w 002207b0 @17 -> + 00000000 @00; 1i
Debug: 2947 3822 batch.c:199 log_dmi_decoded(): write: command=0x2207b0 {control=0x2207b0}
Debug: 2948 3822 batch.c:255 log_batch(): 40b r 00000000 @16 -> + 002207b0 @17; 1i
Debug: 2949 3822 batch.c:255 log_batch(): 40b - 00000000 @00 -> + 02000002 @16; 1i
Debug: 2950 3822 batch.c:199 log_dmi_decoded(): read: abstractcs=0x2000002 {datacount=2 progbufsize=2}
Debug: 2951 3822 riscv-013.c:623 abstract_cmd_batch_check_and_clear_cmderr(): [riscv.cpu] abstractcs=0x2000002 {datacount=2 relaxedpriv=full_checks busy=ready progbufsize=2 cmderr=none}
Debug: 2952 3822 batch.c:291 riscv_batch_run_from(): [riscv.cpu] Running batch of scans [0, 2)
Debug: 2953 3822 batch.c:255 log_batch(): 40b r 00000000 @04 -> + 00000000 @00; 1i
Debug: 2954 3822 batch.c:255 log_batch(): 40b - 00000000 @00 -> + 4003b043 @04; 1i
Debug: 2955 3822 batch.c:199 log_dmi_decoded(): read: 
Debug: 2956 3822 riscv-013.c:1586 register_read_direct(): [riscv.cpu] dcsr = 0x4003b043
Debug: 2957 3822 riscv_reg.c:999 riscv_reg_get(): [riscv.cpu] Read dcsr: 0x4003b043
Debug: 2958 3822 riscv_reg.c:999 riscv_reg_get(): [riscv.cpu] Read priv: 0x3
Debug: 2959 3822 riscv_reg.c:990 riscv_reg_get(): [riscv.cpu] Reading priv from target
Debug: 2960 3822 riscv_reg.c:985 riscv_reg_get(): [riscv.cpu] Read dcsr: 0x4003b043 (cached)
Debug: 2961 3822 riscv_reg.c:999 riscv_reg_get(): [riscv.cpu] Read priv: 0x3
Debug: 2962 3822 riscv_reg.c:990 riscv_reg_get(): [riscv.cpu] Reading mstatus from target
Debug: 2963 3822 riscv-013.c:5083 riscv013_get_register(): [riscv.cpu] reading register mstatus
Debug: 2964 3822 riscv-013.c:1567 register_read_direct(): [riscv.cpu] Reading mstatus
Debug: 2965 3822 riscv-013.c:664 riscv013_execute_abstract_command(): [riscv.cpu] access register=0x220300 {regno=0x300 write=arg0 transfer=enabled postexec=disabled aarpostincrement=disabled aarsize=32bit}
Debug: 2966 3822 batch.c:291 riscv_batch_run_from(): [riscv.cpu] Running batch of scans [0, 3)
Debug: 2967 3822 batch.c:255 log_batch(): 40b w 00220300 @17 -> + 00000000 @00; 1i
Debug: 2968 3822 batch.c:199 log_dmi_decoded(): write: command=0x220300 {control=0x220300}
Debug: 2969 3822 batch.c:255 log_batch(): 40b r 00000000 @16 -> + 00220300 @17; 1i
Debug: 2970 3822 batch.c:255 log_batch(): 40b - 00000000 @00 -> + 02000002 @16; 1i
Debug: 2971 3822 batch.c:199 log_dmi_decoded(): read: abstractcs=0x2000002 {datacount=2 progbufsize=2}
Debug: 2972 3822 riscv-013.c:623 abstract_cmd_batch_check_and_clear_cmderr(): [riscv.cpu] abstractcs=0x2000002 {datacount=2 relaxedpriv=full_checks busy=ready progbufsize=2 cmderr=none}
Debug: 2973 3822 batch.c:291 riscv_batch_run_from(): [riscv.cpu] Running batch of scans [0, 2)
Debug: 2974 3822 batch.c:255 log_batch(): 40b r 00000000 @04 -> + 00000000 @00; 1i
Debug: 2975 3822 batch.c:255 log_batch(): 40b - 00000000 @00 -> + 00000000 @04; 1i
Debug: 2976 3822 batch.c:199 log_dmi_decoded(): read: 
Debug: 2977 3822 riscv-013.c:1586 register_read_direct(): [riscv.cpu] mstatus = 0x0
Debug: 2978 3822 riscv_reg.c:999 riscv_reg_get(): [riscv.cpu] Read mstatus: 0x0
Debug: 2979 3823 riscv.c:2999 riscv_effective_privilege_mode(): [riscv.cpu] Effective mode=3; v=0
Debug: 2980 3823 riscv.c:3074 riscv_mmu(): [riscv.cpu] SATP/MMU ignored in Machine mode.
Debug: 2981 3823 riscv-013.c:4380 read_memory_progbuf(): [riscv.cpu] reading 1 elements of 4 bytes from 0x101100b0
Debug: 2982 3823 program.c:33 riscv_program_write(): [riscv.cpu] progbuf[00] = DASM(0x0000100f)
Debug: 2983 3823 riscv-013.c:5358 riscv013_write_progbuf(): [riscv.cpu] Cache hit for 0x100f @0
Debug: 2984 3823 program.c:33 riscv_program_write(): [riscv.cpu] progbuf[01] = DASM(0x0330000f)
Debug: 2985 3823 riscv-013.c:5358 riscv013_write_progbuf(): [riscv.cpu] Cache hit for 0x330000f @1
Debug: 2986 3823 riscv-013.c:664 riscv013_execute_abstract_command(): [riscv.cpu] access register=0x241000 {regno=0x1000 write=arg0 transfer=disabled postexec=enabled aarpostincrement=disabled aarsize=32bit}
Debug: 2987 3823 batch.c:291 riscv_batch_run_from(): [riscv.cpu] Running batch of scans [0, 3)
Debug: 2988 3823 batch.c:255 log_batch(): 40b w 00241000 @17 -> + 00000000 @00; 1i
Debug: 2989 3823 batch.c:199 log_dmi_decoded(): write: command=0x241000 {control=0x241000}
Debug: 2990 3823 batch.c:255 log_batch(): 40b r 00000000 @16 -> + 00241000 @17; 1i
Debug: 2991 3823 batch.c:255 log_batch(): 40b - 00000000 @00 -> + 02000002 @16; 1i
Debug: 2992 3823 batch.c:199 log_dmi_decoded(): read: abstractcs=0x2000002 {datacount=2 progbufsize=2}
Debug: 2993 3823 riscv-013.c:623 abstract_cmd_batch_check_and_clear_cmderr(): [riscv.cpu] abstractcs=0x2000002 {datacount=2 relaxedpriv=full_checks busy=ready progbufsize=2 cmderr=none}
Debug: 2994 3823 riscv-013.c:3003 execute_autofence(): [riscv.cpu] Successfully executed fence.i and fence rw, rw
Debug: 2995 3823 riscv-013_reg.c:382 riscv013_reg_save(): [riscv.cpu] Saving s1
Debug: 2996 3823 riscv_reg.c:990 riscv_reg_get(): [riscv.cpu] Reading s1 from target
Debug: 2997 3823 riscv-013.c:5083 riscv013_get_register(): [riscv.cpu] reading register s1
Debug: 2998 3823 riscv-013.c:1567 register_read_direct(): [riscv.cpu] Reading s1
Debug: 2999 3823 riscv-013.c:664 riscv013_execute_abstract_command(): [riscv.cpu] access register=0x221009 {regno=0x1009 write=arg0 transfer=enabled postexec=disabled aarpostincrement=disabled aarsize=32bit}
Debug: 3000 3823 batch.c:291 riscv_batch_run_from(): [riscv.cpu] Running batch of scans [0, 3)
Debug: 3001 3823 batch.c:255 log_batch(): 40b w 00221009 @17 -> + 00000000 @00; 1i
Debug: 3002 3823 batch.c:199 log_dmi_decoded(): write: command=0x221009 {control=0x221009}
Debug: 3003 3823 batch.c:255 log_batch(): 40b r 00000000 @16 -> + 00221009 @17; 1i
Debug: 3004 3823 batch.c:255 log_batch(): 40b - 00000000 @00 -> + 02000002 @16; 1i
Debug: 3005 3823 batch.c:199 log_dmi_decoded(): read: abstractcs=0x2000002 {datacount=2 progbufsize=2}
Debug: 3006 3823 riscv-013.c:623 abstract_cmd_batch_check_and_clear_cmderr(): [riscv.cpu] abstractcs=0x2000002 {datacount=2 relaxedpriv=full_checks busy=ready progbufsize=2 cmderr=none}
Debug: 3007 3823 batch.c:291 riscv_batch_run_from(): [riscv.cpu] Running batch of scans [0, 2)
Debug: 3008 3823 batch.c:255 log_batch(): 40b r 00000000 @04 -> + 00000000 @00; 1i
Debug: 3009 3823 batch.c:255 log_batch(): 40b - 00000000 @00 -> + 00000000 @04; 1i
Debug: 3010 3823 batch.c:199 log_dmi_decoded(): read: 
Debug: 3011 3823 riscv-013.c:1586 register_read_direct(): [riscv.cpu] s1 = 0x0
Debug: 3012 3824 riscv_reg.c:999 riscv_reg_get(): [riscv.cpu] Read s1: 0x0
Debug: 3013 3824 program.c:33 riscv_program_write(): [riscv.cpu] progbuf[00] = DASM(0x0004a483)
Debug: 3014 3824 batch.c:291 riscv_batch_run_from(): [riscv.cpu] Running batch of scans [0, 2)
Debug: 3015 3824 batch.c:255 log_batch(): 40b w 0004a483 @20 -> + 00000000 @00; 1i
Debug: 3016 3824 batch.c:199 log_dmi_decoded(): write: 
Debug: 3017 3824 batch.c:255 log_batch(): 40b - 00000000 @00 -> + 0004a483 @20; 1i
Debug: 3018 3824 program.c:33 riscv_program_write(): [riscv.cpu] progbuf[01] = DASM(0x00100073)
Debug: 3019 3824 batch.c:291 riscv_batch_run_from(): [riscv.cpu] Running batch of scans [0, 2)
Debug: 3020 3824 batch.c:255 log_batch(): 40b w 00100073 @21 -> + 00000000 @00; 1i
Debug: 3021 3824 batch.c:199 log_dmi_decoded(): write: 
Debug: 3022 3824 batch.c:255 log_batch(): 40b - 00000000 @00 -> + 00100073 @21; 1i
Debug: 3023 3824 batch.c:291 riscv_batch_run_from(): [riscv.cpu] Running batch of scans [0, 2)
Debug: 3024 3824 batch.c:255 log_batch(): 40b w 101100b0 @04 -> + 00000000 @00; 1i
Debug: 3025 3824 batch.c:199 log_dmi_decoded(): write: 
Debug: 3026 3824 batch.c:255 log_batch(): 40b - 00000000 @00 -> + 101100b0 @04; 1i
Debug: 3027 3824 riscv-013.c:664 riscv013_execute_abstract_command(): [riscv.cpu] access register=0x271009 {regno=0x1009 write=register transfer=enabled postexec=enabled aarpostincrement=disabled aarsize=32bit}
Debug: 3028 3824 batch.c:291 riscv_batch_run_from(): [riscv.cpu] Running batch of scans [0, 3)
Debug: 3029 3824 batch.c:255 log_batch(): 40b w 00271009 @17 -> + 00000000 @00; 1i
Debug: 3030 3824 batch.c:199 log_dmi_decoded(): write: command=0x271009 {control=0x271009}
Debug: 3031 3824 batch.c:255 log_batch(): 40b r 00000000 @16 -> + 00271009 @17; 1i
Debug: 3032 3824 batch.c:255 log_batch(): 40b - 00000000 @00 -> + 02000002 @16; 1i
Debug: 3033 3824 batch.c:199 log_dmi_decoded(): read: abstractcs=0x2000002 {datacount=2 progbufsize=2}
Debug: 3034 3824 riscv-013.c:623 abstract_cmd_batch_check_and_clear_cmderr(): [riscv.cpu] abstractcs=0x2000002 {datacount=2 relaxedpriv=full_checks busy=ready progbufsize=2 cmderr=none}
Debug: 3035 3825 riscv-013.c:1567 register_read_direct(): [riscv.cpu] Reading s1
Debug: 3036 3825 riscv-013.c:664 riscv013_execute_abstract_command(): [riscv.cpu] access register=0x221009 {regno=0x1009 write=arg0 transfer=enabled postexec=disabled aarpostincrement=disabled aarsize=32bit}
Debug: 3037 3825 batch.c:291 riscv_batch_run_from(): [riscv.cpu] Running batch of scans [0, 3)
Debug: 3038 3825 batch.c:255 log_batch(): 40b w 00221009 @17 -> + 00000000 @00; 1i
Debug: 3039 3825 batch.c:199 log_dmi_decoded(): write: command=0x221009 {control=0x221009}
Debug: 3040 3825 batch.c:255 log_batch(): 40b r 00000000 @16 -> + 00221009 @17; 1i
Debug: 3041 3825 batch.c:255 log_batch(): 40b - 00000000 @00 -> + 02000002 @16; 1i
Debug: 3042 3825 batch.c:199 log_dmi_decoded(): read: abstractcs=0x2000002 {datacount=2 progbufsize=2}
Debug: 3043 3825 riscv-013.c:623 abstract_cmd_batch_check_and_clear_cmderr(): [riscv.cpu] abstractcs=0x2000002 {datacount=2 relaxedpriv=full_checks busy=ready progbufsize=2 cmderr=none}
Debug: 3044 3825 batch.c:291 riscv_batch_run_from(): [riscv.cpu] Running batch of scans [0, 2)
Debug: 3045 3825 batch.c:255 log_batch(): 40b r 00000000 @04 -> + 00000000 @00; 1i
Debug: 3046 3825 batch.c:255 log_batch(): 40b - 00000000 @00 -> + 1800d422 @04; 1i
Debug: 3047 3825 batch.c:199 log_dmi_decoded(): read: 
Debug: 3048 3825 riscv-013.c:1586 register_read_direct(): [riscv.cpu] s1 = 0x1800d422
Debug: 3049 3825 riscv-013.c:3071 log_memory_access64(): M[0x101100b0] reads 0x1800d422
Debug: 3050 3825 riscv-013.c:3462 log_mem_access_result(): [riscv.cpu] Succeeded to read memory via program buffer.
Debug: 3051 3825 riscv_semihosting.c:76 riscv_semihosting_detect_magic_sequence(): [riscv.cpu] compare 0x1800d422 from 0x101100b0 against 0x01f01013
Debug: 3052 3825 riscv_semihosting.c:79 riscv_semihosting_detect_magic_sequence(): [riscv.cpu] Not a RISC-V semihosting sequence
Debug: 3053 3825 riscv_semihosting.c:140 riscv_semihosting(): [riscv.cpu] Semihosting outcome: NONE (semihosting not enabled)
Debug: 3054 3825 riscv.c:4085 riscv_openocd_poll(): [riscv.cpu] should_remain_halted=0, should_resume=0
Debug: 3055 3825 target.c:1780 target_call_event_callbacks(): target event 0 (gdb-halt) for core riscv.cpu
Debug: 3056 3825 gdb_server.c:195 gdb_last_signal(): [riscv.cpu] Debug reason is: BREAKPOINT
Debug: 3057 3825 gdb_server.c:441 gdb_log_outgoing_packet(): [riscv.cpu] {1} sending packet: $T05#b9
Debug: 3058 3825 target.c:1780 target_call_event_callbacks(): target event 1 (halted) for core riscv.cpu
Debug: 3059 3825 target.c:1780 target_call_event_callbacks(): target event 8 (gdb-end) for core riscv.cpu
Debug: 3060 3825 target.c:3001 handle_target(): [riscv.cpu] target_poll() -> 0, next attempt in 100ms
Debug: 3061 3826 gdb_server.c:424 gdb_log_incoming_packet(): [riscv.cpu] {1} received packet: g
Debug: 3062 3826 riscv.c:3514 riscv_get_gdb_reg_list_internal(): [riscv.cpu] reg_class=1, read=1
Debug: 3063 3826 riscv_reg.c:990 riscv_reg_get(): [riscv.cpu] Reading zero from target
Debug: 3064 3826 riscv-013.c:5083 riscv013_get_register(): [riscv.cpu] reading register zero
Debug: 3065 3826 riscv-013.c:1567 register_read_direct(): [riscv.cpu] Reading zero
Debug: 3066 3826 riscv-013.c:664 riscv013_execute_abstract_command(): [riscv.cpu] access register=0x221000 {regno=0x1000 write=arg0 transfer=enabled postexec=disabled aarpostincrement=disabled aarsize=32bit}
Debug: 3067 3826 batch.c:291 riscv_batch_run_from(): [riscv.cpu] Running batch of scans [0, 3)
Debug: 3068 3826 batch.c:255 log_batch(): 40b w 00221000 @17 -> + 00000000 @00; 1i
Debug: 3069 3826 batch.c:199 log_dmi_decoded(): write: command=0x221000 {control=0x221000}
Debug: 3070 3826 batch.c:255 log_batch(): 40b r 00000000 @16 -> + 00221000 @17; 1i
Debug: 3071 3826 batch.c:255 log_batch(): 40b - 00000000 @00 -> + 02000002 @16; 1i
Debug: 3072 3826 batch.c:199 log_dmi_decoded(): read: abstractcs=0x2000002 {datacount=2 progbufsize=2}
Debug: 3073 3826 riscv-013.c:623 abstract_cmd_batch_check_and_clear_cmderr(): [riscv.cpu] abstractcs=0x2000002 {datacount=2 relaxedpriv=full_checks busy=ready progbufsize=2 cmderr=none}
Debug: 3074 3826 batch.c:291 riscv_batch_run_from(): [riscv.cpu] Running batch of scans [0, 2)
Debug: 3075 3826 batch.c:255 log_batch(): 40b r 00000000 @04 -> + 00000000 @00; 1i
Debug: 3076 3826 batch.c:255 log_batch(): 40b - 00000000 @00 -> + 00000000 @04; 1i
Debug: 3077 3826 batch.c:199 log_dmi_decoded(): read: 
Debug: 3078 3826 riscv-013.c:1586 register_read_direct(): [riscv.cpu] zero = 0x0
Debug: 3079 3826 riscv_reg.c:999 riscv_reg_get(): [riscv.cpu] Read zero: 0x0
Debug: 3080 3826 riscv-013_reg.c:40 riscv013_reg_get(): [riscv.cpu] Read 0x00000000 from zero (valid=1).
Debug: 3081 3826 riscv_reg.c:990 riscv_reg_get(): [riscv.cpu] Reading ra from target
Debug: 3082 3826 riscv-013.c:5083 riscv013_get_register(): [riscv.cpu] reading register ra
Debug: 3083 3826 riscv-013.c:1567 register_read_direct(): [riscv.cpu] Reading ra
Debug: 3084 3826 riscv-013.c:664 riscv013_execute_abstract_command(): [riscv.cpu] access register=0x221001 {regno=0x1001 write=arg0 transfer=enabled postexec=disabled aarpostincrement=disabled aarsize=32bit}
Debug: 3085 3826 batch.c:291 riscv_batch_run_from(): [riscv.cpu] Running batch of scans [0, 3)
Debug: 3086 3827 batch.c:255 log_batch(): 40b w 00221001 @17 -> + 00000000 @00; 1i
Debug: 3087 3827 batch.c:199 log_dmi_decoded(): write: command=0x221001 {control=0x221001}
Debug: 3088 3827 batch.c:255 log_batch(): 40b r 00000000 @16 -> + 00221001 @17; 1i
Debug: 3089 3827 batch.c:255 log_batch(): 40b - 00000000 @00 -> + 02000002 @16; 1i
Debug: 3090 3827 batch.c:199 log_dmi_decoded(): read: abstractcs=0x2000002 {datacount=2 progbufsize=2}
Debug: 3091 3827 riscv-013.c:623 abstract_cmd_batch_check_and_clear_cmderr(): [riscv.cpu] abstractcs=0x2000002 {datacount=2 relaxedpriv=full_checks busy=ready progbufsize=2 cmderr=none}
Debug: 3092 3827 batch.c:291 riscv_batch_run_from(): [riscv.cpu] Running batch of scans [0, 2)
Debug: 3093 3827 batch.c:255 log_batch(): 40b r 00000000 @04 -> + 00000000 @00; 1i
Debug: 3094 3827 batch.c:255 log_batch(): 40b - 00000000 @00 -> + 101100f6 @04; 1i
Debug: 3095 3827 batch.c:199 log_dmi_decoded(): read: 
Debug: 3096 3827 riscv-013.c:1586 register_read_direct(): [riscv.cpu] ra = 0x101100f6
Debug: 3097 3827 riscv_reg.c:999 riscv_reg_get(): [riscv.cpu] Read ra: 0x101100f6
Debug: 3098 3827 riscv-013_reg.c:40 riscv013_reg_get(): [riscv.cpu] Read 0x101100f6 from ra (valid=1).
Debug: 3099 3827 riscv_reg.c:990 riscv_reg_get(): [riscv.cpu] Reading sp from target
Debug: 3100 3827 riscv-013.c:5083 riscv013_get_register(): [riscv.cpu] reading register sp
Debug: 3101 3827 riscv-013.c:1567 register_read_direct(): [riscv.cpu] Reading sp
Debug: 3102 3827 riscv-013.c:664 riscv013_execute_abstract_command(): [riscv.cpu] access register=0x221002 {regno=0x1002 write=arg0 transfer=enabled postexec=disabled aarpostincrement=disabled aarsize=32bit}
Debug: 3103 3827 batch.c:291 riscv_batch_run_from(): [riscv.cpu] Running batch of scans [0, 3)
Debug: 3104 3827 batch.c:255 log_batch(): 40b w 00221002 @17 -> + 00000000 @00; 1i
Debug: 3105 3827 batch.c:199 log_dmi_decoded(): write: command=0x221002 {control=0x221002}
Debug: 3106 3827 batch.c:255 log_batch(): 40b r 00000000 @16 -> + 00221002 @17; 1i
Debug: 3107 3827 batch.c:255 log_batch(): 40b - 00000000 @00 -> + 02000002 @16; 1i
Debug: 3108 3827 batch.c:199 log_dmi_decoded(): read: abstractcs=0x2000002 {datacount=2 progbufsize=2}
Debug: 3109 3827 riscv-013.c:623 abstract_cmd_batch_check_and_clear_cmderr(): [riscv.cpu] abstractcs=0x2000002 {datacount=2 relaxedpriv=full_checks busy=ready progbufsize=2 cmderr=none}
Debug: 3110 3827 batch.c:291 riscv_batch_run_from(): [riscv.cpu] Running batch of scans [0, 2)
Debug: 3111 3827 batch.c:255 log_batch(): 40b r 00000000 @04 -> + 00000000 @00; 1i
Debug: 3112 3827 batch.c:255 log_batch(): 40b - 00000000 @00 -> + 10110248 @04; 1i
Debug: 3113 3828 batch.c:199 log_dmi_decoded(): read: 
Debug: 3114 3828 riscv-013.c:1586 register_read_direct(): [riscv.cpu] sp = 0x10110248
Debug: 3115 3828 riscv_reg.c:999 riscv_reg_get(): [riscv.cpu] Read sp: 0x10110248
Debug: 3116 3828 riscv-013_reg.c:40 riscv013_reg_get(): [riscv.cpu] Read 0x10110248 from sp (valid=1).
Debug: 3117 3828 riscv_reg.c:990 riscv_reg_get(): [riscv.cpu] Reading gp from target
Debug: 3118 3828 riscv-013.c:5083 riscv013_get_register(): [riscv.cpu] reading register gp
Debug: 3119 3828 riscv-013.c:1567 register_read_direct(): [riscv.cpu] Reading gp
Debug: 3120 3828 riscv-013.c:664 riscv013_execute_abstract_command(): [riscv.cpu] access register=0x221003 {regno=0x1003 write=arg0 transfer=enabled postexec=disabled aarpostincrement=disabled aarsize=32bit}
Debug: 3121 3828 batch.c:291 riscv_batch_run_from(): [riscv.cpu] Running batch of scans [0, 3)
Debug: 3122 3828 batch.c:255 log_batch(): 40b w 00221003 @17 -> + 00000000 @00; 1i
Debug: 3123 3828 batch.c:199 log_dmi_decoded(): write: command=0x221003 {control=0x221003}
Debug: 3124 3828 batch.c:255 log_batch(): 40b r 00000000 @16 -> + 00221003 @17; 1i
Debug: 3125 3828 batch.c:255 log_batch(): 40b - 00000000 @00 -> + 02000002 @16; 1i
Debug: 3126 3828 batch.c:199 log_dmi_decoded(): read: abstractcs=0x2000002 {datacount=2 progbufsize=2}
Debug: 3127 3828 riscv-013.c:623 abstract_cmd_batch_check_and_clear_cmderr(): [riscv.cpu] abstractcs=0x2000002 {datacount=2 relaxedpriv=full_checks busy=ready progbufsize=2 cmderr=none}
Debug: 3128 3828 batch.c:291 riscv_batch_run_from(): [riscv.cpu] Running batch of scans [0, 2)
Debug: 3129 3828 batch.c:255 log_batch(): 40b r 00000000 @04 -> + 00000000 @00; 1i
Debug: 3130 3828 batch.c:255 log_batch(): 40b - 00000000 @00 -> + 10110a7c @04; 1i
Debug: 3131 3828 batch.c:199 log_dmi_decoded(): read: 
Debug: 3132 3828 riscv-013.c:1586 register_read_direct(): [riscv.cpu] gp = 0x10110a7c
Debug: 3133 3828 riscv_reg.c:999 riscv_reg_get(): [riscv.cpu] Read gp: 0x10110a7c
Debug: 3134 3828 riscv-013_reg.c:40 riscv013_reg_get(): [riscv.cpu] Read 0x10110a7c from gp (valid=1).
Debug: 3135 3828 riscv_reg.c:990 riscv_reg_get(): [riscv.cpu] Reading tp from target
Debug: 3136 3828 riscv-013.c:5083 riscv013_get_register(): [riscv.cpu] reading register tp
Debug: 3137 3828 riscv-013.c:1567 register_read_direct(): [riscv.cpu] Reading tp
Debug: 3138 3828 riscv-013.c:664 riscv013_execute_abstract_command(): [riscv.cpu] access register=0x221004 {regno=0x1004 write=arg0 transfer=enabled postexec=disabled aarpostincrement=disabled aarsize=32bit}
Debug: 3139 3828 batch.c:291 riscv_batch_run_from(): [riscv.cpu] Running batch of scans [0, 3)
Debug: 3140 3828 batch.c:255 log_batch(): 40b w 00221004 @17 -> + 00000000 @00; 1i
Debug: 3141 3828 batch.c:199 log_dmi_decoded(): write: command=0x221004 {control=0x221004}
Debug: 3142 3828 batch.c:255 log_batch(): 40b r 00000000 @16 -> + 00221004 @17; 1i
Debug: 3143 3828 batch.c:255 log_batch(): 40b - 00000000 @00 -> + 02000002 @16; 1i
Debug: 3144 3828 batch.c:199 log_dmi_decoded(): read: abstractcs=0x2000002 {datacount=2 progbufsize=2}
Debug: 3145 3829 riscv-013.c:623 abstract_cmd_batch_check_and_clear_cmderr(): [riscv.cpu] abstractcs=0x2000002 {datacount=2 relaxedpriv=full_checks busy=ready progbufsize=2 cmderr=none}
Debug: 3146 3829 batch.c:291 riscv_batch_run_from(): [riscv.cpu] Running batch of scans [0, 2)
Debug: 3147 3829 batch.c:255 log_batch(): 40b r 00000000 @04 -> + 00000000 @00; 1i
Debug: 3148 3829 batch.c:255 log_batch(): 40b - 00000000 @00 -> + 00000000 @04; 1i
Debug: 3149 3829 batch.c:199 log_dmi_decoded(): read: 
Debug: 3150 3829 riscv-013.c:1586 register_read_direct(): [riscv.cpu] tp = 0x0
Debug: 3151 3829 riscv_reg.c:999 riscv_reg_get(): [riscv.cpu] Read tp: 0x0
Debug: 3152 3829 riscv-013_reg.c:40 riscv013_reg_get(): [riscv.cpu] Read 0x00000000 from tp (valid=1).
Debug: 3153 3829 riscv_reg.c:990 riscv_reg_get(): [riscv.cpu] Reading t0 from target
Debug: 3154 3829 riscv-013.c:5083 riscv013_get_register(): [riscv.cpu] reading register t0
Debug: 3155 3829 riscv-013.c:1567 register_read_direct(): [riscv.cpu] Reading t0
Debug: 3156 3829 riscv-013.c:664 riscv013_execute_abstract_command(): [riscv.cpu] access register=0x221005 {regno=0x1005 write=arg0 transfer=enabled postexec=disabled aarpostincrement=disabled aarsize=32bit}
Debug: 3157 3829 batch.c:291 riscv_batch_run_from(): [riscv.cpu] Running batch of scans [0, 3)
Debug: 3158 3829 batch.c:255 log_batch(): 40b w 00221005 @17 -> + 00000000 @00; 1i
Debug: 3159 3829 batch.c:199 log_dmi_decoded(): write: command=0x221005 {control=0x221005}
Debug: 3160 3829 batch.c:255 log_batch(): 40b r 00000000 @16 -> + 00221005 @17; 1i
Debug: 3161 3829 batch.c:255 log_batch(): 40b - 00000000 @00 -> + 02000002 @16; 1i
Debug: 3162 3829 batch.c:199 log_dmi_decoded(): read: abstractcs=0x2000002 {datacount=2 progbufsize=2}
Debug: 3163 3829 riscv-013.c:623 abstract_cmd_batch_check_and_clear_cmderr(): [riscv.cpu] abstractcs=0x2000002 {datacount=2 relaxedpriv=full_checks busy=ready progbufsize=2 cmderr=none}
Debug: 3164 3829 batch.c:291 riscv_batch_run_from(): [riscv.cpu] Running batch of scans [0, 2)
Debug: 3165 3829 batch.c:255 log_batch(): 40b r 00000000 @04 -> + 00000000 @00; 1i
Debug: 3166 3829 batch.c:255 log_batch(): 40b - 00000000 @00 -> + 1011027c @04; 1i
Debug: 3167 3829 batch.c:199 log_dmi_decoded(): read: 
Debug: 3168 3829 riscv-013.c:1586 register_read_direct(): [riscv.cpu] t0 = 0x1011027c
Debug: 3169 3829 riscv_reg.c:999 riscv_reg_get(): [riscv.cpu] Read t0: 0x1011027c
Debug: 3170 3829 riscv-013_reg.c:40 riscv013_reg_get(): [riscv.cpu] Read 0x1011027c from t0 (valid=1).
Debug: 3171 3829 riscv_reg.c:990 riscv_reg_get(): [riscv.cpu] Reading t1 from target
Debug: 3172 3829 riscv-013.c:5083 riscv013_get_register(): [riscv.cpu] reading register t1
Debug: 3173 3829 riscv-013.c:1567 register_read_direct(): [riscv.cpu] Reading t1
Debug: 3174 3829 riscv-013.c:664 riscv013_execute_abstract_command(): [riscv.cpu] access register=0x221006 {regno=0x1006 write=arg0 transfer=enabled postexec=disabled aarpostincrement=disabled aarsize=32bit}
Debug: 3175 3829 batch.c:291 riscv_batch_run_from(): [riscv.cpu] Running batch of scans [0, 3)
Debug: 3176 3829 batch.c:255 log_batch(): 40b w 00221006 @17 -> + 00000000 @00; 1i
Debug: 3177 3829 batch.c:199 log_dmi_decoded(): write: command=0x221006 {control=0x221006}
Debug: 3178 3829 batch.c:255 log_batch(): 40b r 00000000 @16 -> + 00221006 @17; 1i
Debug: 3179 3829 batch.c:255 log_batch(): 40b - 00000000 @00 -> + 02000002 @16; 1i
Debug: 3180 3829 batch.c:199 log_dmi_decoded(): read: abstractcs=0x2000002 {datacount=2 progbufsize=2}
Debug: 3181 3829 riscv-013.c:623 abstract_cmd_batch_check_and_clear_cmderr(): [riscv.cpu] abstractcs=0x2000002 {datacount=2 relaxedpriv=full_checks busy=ready progbufsize=2 cmderr=none}
Debug: 3182 3829 batch.c:291 riscv_batch_run_from(): [riscv.cpu] Running batch of scans [0, 2)
Debug: 3183 3829 batch.c:255 log_batch(): 40b r 00000000 @04 -> + 00000000 @00; 1i
Debug: 3184 3829 batch.c:255 log_batch(): 40b - 00000000 @00 -> + 1011027c @04; 1i
Debug: 3185 3829 batch.c:199 log_dmi_decoded(): read: 
Debug: 3186 3829 riscv-013.c:1586 register_read_direct(): [riscv.cpu] t1 = 0x1011027c
Debug: 3187 3829 riscv_reg.c:999 riscv_reg_get(): [riscv.cpu] Read t1: 0x1011027c
Debug: 3188 3829 riscv-013_reg.c:40 riscv013_reg_get(): [riscv.cpu] Read 0x1011027c from t1 (valid=1).
Debug: 3189 3829 riscv_reg.c:990 riscv_reg_get(): [riscv.cpu] Reading t2 from target
Debug: 3190 3829 riscv-013.c:5083 riscv013_get_register(): [riscv.cpu] reading register t2
Debug: 3191 3829 riscv-013.c:1567 register_read_direct(): [riscv.cpu] Reading t2
Debug: 3192 3829 riscv-013.c:664 riscv013_execute_abstract_command(): [riscv.cpu] access register=0x221007 {regno=0x1007 write=arg0 transfer=enabled postexec=disabled aarpostincrement=disabled aarsize=32bit}
Debug: 3193 3829 batch.c:291 riscv_batch_run_from(): [riscv.cpu] Running batch of scans [0, 3)
Debug: 3194 3830 batch.c:255 log_batch(): 40b w 00221007 @17 -> + 00000000 @00; 1i
Debug: 3195 3830 batch.c:199 log_dmi_decoded(): write: command=0x221007 {control=0x221007}
Debug: 3196 3830 batch.c:255 log_batch(): 40b r 00000000 @16 -> + 00221007 @17; 1i
